   0.002707 1  3D8             Rx   d 8 0D D4 27 10 00 59 F9 00  Length = 218190 BitCount = 117 ID = 984
   0.012897 1  558             Rx   d 8 03 12 00 04 00 59 05 07  Length = 224198 BitCount = 120 ID = 1368
   0.013135 1  4D8             Rx   d 8 0D 8F 00 00 00 D2 03 08  Length = 222198 BitCount = 119 ID = 1240
   0.015833 CAN 1 Status:chip status error active
   0.015833 CAN 2 Status:chip status error active
   0.032908 1  358             Rx   d 8 0F BE 0A 22 00 FA 00 28  Length = 224183 BitCount = 120 ID = 856
   0.037914 1  360             Rx   d 8 0D 8F 00 00 80 00 00 00  Length = 227944 BitCount = 122 ID = 864
   0.038166 1  3E0             Rx   d 8 0D D4 00 00 00 00 00 00  Length = 236170 BitCount = 126 ID = 992
   0.038404 1  420             Rx   d 8 65 CC AD C3 00 00 00 00  Length = 222182 BitCount = 119 ID = 1056
   0.042740 1  518             Rx   d 8 FF D2 FF D2 FF FF FF FF  Length = 228179 BitCount = 122 ID = 1304
   0.052843 1  5D8             Rx   d 8 00 42 59 44 00 00 00 00  Length = 226179 BitCount = 121 ID = 1496
   0.053071 1  618             Rx   d 8 00 42 61 74 74 65 72 79  Length = 212194 BitCount = 114 ID = 1560
   0.053305 1  618             Rx   d 8 01 2D 42 6F 78 20 48 39  Length = 218190 BitCount = 117 ID = 1560
   0.053549 1  618             Rx   d 8 02 2E 30 00 00 00 00 00  Length = 228194 BitCount = 122 ID = 1560
   0.072909 1  458             Rx   d 8 00 00 12 34 00 00 56 78  Length = 226178 BitCount = 121 ID = 1112
   0.082679 1  598             Rx   d 8 00 00 12 34 5A DE 07 4F  Length = 220186 BitCount = 118 ID = 1432
   0.082903 1  158             Rx   d 8 AA AA AA AA AA AA AA AA  Length = 208202 BitCount = 112 ID = 344
   0.102661 1  3D8             Rx   d 8 0D D4 27 10 00 59 F9 00  Length = 218190 BitCount = 117 ID = 984
   0.112852 1  558             Rx   d 8 03 12 00 04 00 59 05 07  Length = 224182 BitCount = 120 ID = 1368
   0.113090 1  4D8             Rx   d 8 0D 8F 00 00 00 D2 03 08  Length = 222182 BitCount = 119 ID = 1240
   0.132842 1  358             Rx   d 8 0F BE 0A 22 00 FA 00 28  Length = 224182 BitCount = 120 ID = 856
   0.137982 1  360             Rx   d 8 0D 8F 00 00 80 00 00 00  Length = 228178 BitCount = 122 ID = 864
   0.138234 1  3E0             Rx   d 8 0D D4 00 00 00 00 00 00  Length = 235936 BitCount = 126 ID = 992
   0.138472 1  420             Rx   d 8 65 CC AD C3 00 00 00 00  Length = 222182 BitCount = 119 ID = 1056
   0.142695 1  518             Rx   d 8 FF D2 FF D2 FF FF FF FF  Length = 228179 BitCount = 122 ID = 1304
   0.152819 1  5D8             Rx   d 8 00 42 59 44 00 00 00 00  Length = 226178 BitCount = 121 ID = 1496
   0.172803 1  618             Rx   d 8 00 42 61 74 74 65 72 79  Length = 212210 BitCount = 114 ID = 1560
   0.173037 1  618             Rx   d 8 01 2D 42 6F 78 20 48 39  Length = 218190 BitCount = 117 ID = 1560
   0.173281 1  618             Rx   d 8 02 2E 30 00 00 00 00 00  Length = 228178 BitCount = 122 ID = 1560
   0.173523 1  458             Rx   d 8 00 00 12 34 00 00 56 78  Length = 226178 BitCount = 121 ID = 1112
   0.182423 1  598             Rx   d 8 00 00 12 34 5A DE 07 4F  Length = 220187 BitCount = 118 ID = 1432
   0.182647 1  158             Rx   d 8 AA AA AA AA AA AA AA AA  Length = 208203 BitCount = 112 ID = 344
   0.202654 1  3D8             Rx   d 8 0D D4 27 10 00 59 F9 00  Length = 218206 BitCount = 117 ID = 984
   0.212840 1  558             Rx   d 8 03 12 00 04 00 59 05 07  Length = 224182 BitCount = 120 ID = 1368
   0.213078 1  4D8             Rx   d 8 0D 8F 00 00 00 D2 03 08  Length = 222182 BitCount = 119 ID = 1240
   0.232818 1  358             Rx   d 8 0F BE 0A 22 00 FA 00 28  Length = 224182 BitCount = 120 ID = 856
   0.237950 1  360             Rx   d 8 0D 8F 00 00 80 00 00 00  Length = 228178 BitCount = 122 ID = 864
   0.238202 1  3E0             Rx   d 8 0D D4 00 00 00 00 00 00  Length = 235936 BitCount = 126 ID = 992
   0.238440 1  420             Rx   d 8 65 CC AD C3 00 00 00 00  Length = 221952 BitCount = 119 ID = 1056
   0.242674 1  518             Rx   d 8 FF D2 FF D2 FF FF FF FF  Length = 228178 BitCount = 122 ID = 1304
   0.252816 1  5D8             Rx   d 8 00 42 59 44 00 00 00 00  Length = 226178 BitCount = 121 ID = 1496
   0.272831 1  458             Rx   d 8 00 00 12 34 00 00 56 78  Length = 226178 BitCount = 121 ID = 1112
   0.282645 1  598             Rx   d 8 00 00 12 34 5A DE 07 4F  Length = 220186 BitCount = 118 ID = 1432
   0.282869 1  158             Rx   d 8 AA AA AA AA AA AA AA AA  Length = 208202 BitCount = 112 ID = 344
   0.293007 1  618             Rx   d 8 00 42 61 74 74 65 72 79  Length = 212194 BitCount = 114 ID = 1560
   0.293241 1  618             Rx   d 8 01 2D 42 6F 78 20 48 39  Length = 218190 BitCount = 117 ID = 1560
   0.293485 1  618             Rx   d 8 02 2E 30 00 00 00 00 00  Length = 228178 BitCount = 122 ID = 1560
   0.302827 1  3D8             Rx   d 8 0D D4 27 10 00 59 F9 00  Length = 218191 BitCount = 117 ID = 984
   0.312832 1  558             Rx   d 8 03 12 00 04 00 59 05 07  Length = 224183 BitCount = 120 ID = 1368
   0.313070 1  4D8             Rx   d 8 0D 8F 00 00 00 D2 03 08  Length = 222182 BitCount = 119 ID = 1240
   0.332822 1  358             Rx   d 8 0F BE 0A 22 00 FA 00 28  Length = 224182 BitCount = 120 ID = 856
   0.337914 1  360             Rx   d 8 0D 8F 00 00 80 00 00 00  Length = 228178 BitCount = 122 ID = 864
   0.338166 1  3E0             Rx   d 8 0D D4 00 00 00 00 00 00  Length = 235937 BitCount = 126 ID = 992
   0.338404 1  420             Rx   d 8 65 CC AD C3 00 00 00 00  Length = 222183 BitCount = 119 ID = 1056
   0.342682 1  518             Rx   d 8 FF D2 FF D2 FF FF FF FF  Length = 228178 BitCount = 122 ID = 1304
   0.352807 1  5D8             Rx   d 8 00 42 59 44 00 00 00 00  Length = 226178 BitCount = 121 ID = 1496
   0.372803 1  458             Rx   d 8 00 00 12 34 00 00 56 78  Length = 226194 BitCount = 121 ID = 1112
   0.382525 1  598             Rx   d 8 00 00 12 34 5A DE 07 4F  Length = 220186 BitCount = 118 ID = 1432
   0.382749 1  158             Rx   d 8 AA AA AA AA AA AA AA AA  Length = 208202 BitCount = 112 ID = 344
   0.402792 1  3D8             Rx   d 8 0D D4 27 10 00 59 F9 00  Length = 218191 BitCount = 117 ID = 984
   0.412874 1  558             Rx   d 8 03 12 00 04 00 59 05 07  Length = 224182 BitCount = 120 ID = 1368
   0.413102 1  618             Rx   d 8 00 42 61 74 74 65 72 79  Length = 212210 BitCount = 114 ID = 1560
   0.413336 1  618             Rx   d 8 01 2D 42 6F 78 20 48 39  Length = 218206 BitCount = 117 ID = 1560
   0.413580 1  618             Rx   d 8 02 2E 30 00 00 00 00 00  Length = 228178 BitCount = 122 ID = 1560
   0.413818 1  4D8             Rx   d 8 0D 8F 00 00 00 D2 03 08  Length = 222182 BitCount = 119 ID = 1240
   0.432854 1  358             Rx   d 8 0F BE 0A 22 00 FA 00 28  Length = 224182 BitCount = 120 ID = 856
   0.437880 1  360             Rx   d 8 0D 8F 00 00 80 00 00 00  Length = 228194 BitCount = 122 ID = 864
   0.438132 1  3E0             Rx   d 8 0D D4 00 00 00 00 00 00  Length = 236170 BitCount = 126 ID = 992
   0.438371 1  420             Rx   d 8 65 CC AD C3 00 00 00 00  Length = 222182 BitCount = 119 ID = 1056
   0.442703 1  518             Rx   d 8 FF D2 FF D2 FF FF FF FF  Length = 228178 BitCount = 122 ID = 1304
   0.452831 1  5D8             Rx   d 8 00 42 59 44 00 00 00 00  Length = 226178 BitCount = 121 ID = 1496
   0.473021 1  458             Rx   d 8 00 00 12 34 00 00 56 78  Length = 226178 BitCount = 121 ID = 1112
   0.482831 1  598             Rx   d 8 00 00 12 34 5A DE 07 4F  Length = 220186 BitCount = 118 ID = 1432
   0.483055 1  158             Rx   d 8 AA AA AA AA AA AA AA AA  Length = 208202 BitCount = 112 ID = 344
   0.502668 1  3D8             Rx   d 8 0D D4 27 10 00 59 F9 00  Length = 218190 BitCount = 117 ID = 984
   0.512880 1  558             Rx   d 8 03 12 00 04 00 59 05 07  Length = 224182 BitCount = 120 ID = 1368
   0.513118 1  4D8             Rx   d 8 0D 8F 00 00 00 D2 03 08  Length = 222182 BitCount = 119 ID = 1240
   0.532824 1  618             Rx   d 8 00 42 61 74 74 65 72 79  Length = 212195 BitCount = 114 ID = 1560
   0.533058 1  618             Rx   d 8 01 2D 42 6F 78 20 48 39  Length = 218191 BitCount = 117 ID = 1560
   0.533302 1  618             Rx   d 8 02 2E 30 00 00 00 00 00  Length = 228179 BitCount = 122 ID = 1560
   0.533542 1  358             Rx   d 8 0F BE 0A 22 00 FA 00 28  Length = 224183 BitCount = 120 ID = 856
   0.537850 1  360             Rx   d 8 0D 8F 00 00 80 00 00 00  Length = 228194 BitCount = 122 ID = 864
   0.538102 1  3E0             Rx   d 8 0D D4 00 00 00 00 00 00  Length = 235948 BitCount = 126 ID = 992
   0.538341 1  420             Rx   d 8 65 CC AD C4 00 00 00 00  Length = 222183 BitCount = 119 ID = 1056
   0.542495 1  518             Rx   d 8 FF D2 FF D2 FF FF FF FF  Length = 228178 BitCount = 122 ID = 1304
   0.552847 1  5D8             Rx   d 8 00 42 59 44 00 00 00 00  Length = 226179 BitCount = 121 ID = 1496
   0.572873 1  458             Rx   d 8 00 00 12 34 00 00 56 78  Length = 226178 BitCount = 121 ID = 1112
   0.582672 1  598             Rx   d 8 00 00 12 34 5A DE 07 4F  Length = 220186 BitCount = 118 ID = 1432
   0.582896 1  158             Rx   d 8 AA AA AA AA AA AA AA AA  Length = 208202 BitCount = 112 ID = 344
   0.602776 1  3D8             Rx   d 8 0D D4 27 10 00 59 F9 00  Length = 218191 BitCount = 117 ID = 984
   0.612910 1  558             Rx   d 8 03 12 00 04 00 59 05 07  Length = 224182 BitCount = 120 ID = 1368
   0.613148 1  4D8             Rx   d 8 0D 8F 00 00 00 D2 03 08  Length = 222182 BitCount = 119 ID = 1240
   0.632856 1  358             Rx   d 8 0F BE 0A 22 00 FA 00 28  Length = 224198 BitCount = 120 ID = 856
   0.637727 1  360             Rx   d 8 0D 8F 00 00 80 00 00 00  Length = 228178 BitCount = 122 ID = 864
   0.637978 1  3E0             Rx   d 8 0D D4 00 00 00 00 00 00  Length = 235948 BitCount = 126 ID = 992
   0.638216 1  420             Rx   d 8 65 CC AD C4 00 00 00 00  Length = 221952 BitCount = 119 ID = 1056
   0.642721 1  518             Rx   d 8 FF D2 FF D2 FF FF FF FF  Length = 228178 BitCount = 122 ID = 1304
   0.652831 1  5D8             Rx   d 8 00 42 59 44 00 00 00 00  Length = 226178 BitCount = 121 ID = 1496
   0.653059 1  618             Rx   d 8 00 42 61 74 74 65 72 79  Length = 212194 BitCount = 114 ID = 1560
   0.653293 1  618             Rx   d 8 01 2D 42 6F 78 20 48 39  Length = 218190 BitCount = 117 ID = 1560
   0.653537 1  618             Rx   d 8 02 2E 30 00 00 00 00 00  Length = 228178 BitCount = 122 ID = 1560
   0.672813 1  458             Rx   d 8 00 00 12 34 00 00 56 78  Length = 226179 BitCount = 121 ID = 1112
   0.682535 1  598             Rx   d 8 00 00 12 34 5A DE 07 4F  Length = 220202 BitCount = 118 ID = 1432
   0.682759 1  158             Rx   d 8 AA AA AA AA AA AA AA AA  Length = 208203 BitCount = 112 ID = 344
   0.702756 1  3D8             Rx   d 8 0D D4 27 10 00 59 F9 00  Length = 218190 BitCount = 117 ID = 984
   0.712882 1  558             Rx   d 8 03 12 00 04 00 59 05 07  Length = 224182 BitCount = 120 ID = 1368
   0.713120 1  4D8             Rx   d 8 0D 8F 00 00 00 D2 03 08  Length = 222182 BitCount = 119 ID = 1240
   0.732858 1  358             Rx   d 8 0F BE 0A 22 00 FA 00 28  Length = 224182 BitCount = 120 ID = 856
   0.737780 1  360             Rx   d 8 0D 8F 00 00 80 00 00 00  Length = 228178 BitCount = 122 ID = 864
   0.738032 1  3E0             Rx   d 8 0D D4 00 00 00 00 00 00  Length = 235936 BitCount = 126 ID = 992
   0.738271 1  420             Rx   d 8 65 CC AD C4 00 00 00 00  Length = 222182 BitCount = 119 ID = 1056
   0.742715 1  518             Rx   d 8 FF D2 FF D2 FF FF FF FF  Length = 228194 BitCount = 122 ID = 1304
   0.752837 1  5D8             Rx   d 8 00 42 59 44 00 00 00 00  Length = 226178 BitCount = 121 ID = 1496
   0.772775 1  618             Rx   d 8 00 42 61 74 74 65 72 79  Length = 212210 BitCount = 114 ID = 1560
   0.773009 1  618             Rx   d 8 01 2D 42 6F 78 20 48 39  Length = 218206 BitCount = 117 ID = 1560
   0.773253 1  618             Rx   d 8 02 2E 30 00 00 00 00 00  Length = 228179 BitCount = 122 ID = 1560
   0.773495 1  458             Rx   d 8 00 00 12 34 00 00 56 78  Length = 226179 BitCount = 121 ID = 1112
   0.782429 1  598             Rx   d 8 00 00 12 34 5A DE 07 4F  Length = 220186 BitCount = 118 ID = 1432
   0.782653 1  158             Rx   d 8 AA AA AA AA AA AA AA AA  Length = 208202 BitCount = 112 ID = 344
   0.802892 1  3D8             Rx   d 8 0D D4 27 10 00 59 F9 00  Length = 218206 BitCount = 117 ID = 984
   0.812876 1  558             Rx   d 8 03 12 00 04 00 59 05 07  Length = 224183 BitCount = 120 ID = 1368
   0.813114 1  4D8             Rx   d 8 0D 8F FF FF 00 D2 03 08  Length = 222183 BitCount = 119 ID = 1240
   0.832850 1  358             Rx   d 8 0F BE 0A 22 00 FA 00 28  Length = 224198 BitCount = 120 ID = 856
   0.837751 1  360             Rx   d 8 0D 8F 00 00 80 00 00 00  Length = 228178 BitCount = 122 ID = 864
   0.838003 1  3E0             Rx   d 8 0D D4 00 00 00 00 00 00  Length = 236171 BitCount = 126 ID = 992
   0.838241 1  420             Rx   d 8 65 CC AD C4 00 00 00 00  Length = 222183 BitCount = 119 ID = 1056
   0.842705 1  518             Rx   d 8 FF D2 FF D2 FF FF FF FF  Length = 228179 BitCount = 122 ID = 1304
   0.852837 1  5D8             Rx   d 8 00 42 59 44 00 00 00 00  Length = 226194 BitCount = 121 ID = 1496
   0.872849 1  458             Rx   d 8 00 00 12 34 00 00 56 78  Length = 226178 BitCount = 121 ID = 1112
   0.882658 1  598             Rx   d 8 00 00 12 34 5A DE 07 4F  Length = 220187 BitCount = 118 ID = 1432
   0.882882 1  158             Rx   d 8 AA AA AA AA AA AA AA AA  Length = 208218 BitCount = 112 ID = 344
   0.893032 1  618             Rx   d 8 00 42 61 74 74 65 72 79  Length = 212194 BitCount = 114 ID = 1560
   0.893266 1  618             Rx   d 8 01 2D 42 6F 78 20 48 39  Length = 218190 BitCount = 117 ID = 1560
   0.893510 1  618             Rx   d 8 02 2E 30 00 00 00 00 00  Length = 228178 BitCount = 122 ID = 1560
   0.902816 1  3D8             Rx   d 8 0D D4 27 10 00 59 F9 00  Length = 218190 BitCount = 117 ID = 984
   0.912836 1  558             Rx   d 8 03 12 00 04 00 59 05 07  Length = 224198 BitCount = 120 ID = 1368
   0.913074 1  4D8             Rx   d 8 0D 8F 00 00 00 D2 03 08  Length = 222198 BitCount = 119 ID = 1240
   0.932845 1  358             Rx   d 8 0F BE 0A 22 00 FA 00 28  Length = 224182 BitCount = 120 ID = 856
   0.937715 1  360             Rx   d 8 0D 8F 00 00 80 00 00 00  Length = 228178 BitCount = 122 ID = 864
   0.937967 1  3E0             Rx   d 8 0D D4 00 00 00 00 00 00  Length = 235936 BitCount = 126 ID = 992
   0.938205 1  420             Rx   d 8 65 CC AD C4 00 00 00 00  Length = 222182 BitCount = 119 ID = 1056
   0.942715 1  518             Rx   d 8 FF D2 FF D2 FF FF FF FF  Length = 228178 BitCount = 122 ID = 1304
   0.952859 1  5D8             Rx   d 8 00 42 59 44 00 00 00 00  Length = 226178 BitCount = 121 ID = 1496
   0.972836 1  458             Rx   d 8 00 00 12 34 00 00 56 78  Length = 226179 BitCount = 121 ID = 1112
   0.982640 1  598             Rx   d 8 00 00 12 34 5A DE 07 4F  Length = 220187 BitCount = 118 ID = 1432
   0.982864 1  158             Rx   d 8 AA AA AA AA AA AA AA AA  Length = 208203 BitCount = 112 ID = 344
   1.002650 1  3D8             Rx   d 8 0D D4 27 10 00 59 F9 00  Length = 218190 BitCount = 117 ID = 984
   1.012884 1  558             Rx   d 8 03 12 00 04 00 59 05 07  Length = 224182 BitCount = 120 ID = 1368
   1.013112 1  618             Rx   d 8 00 42 61 74 74 65 72 79  Length = 212194 BitCount = 114 ID = 1560
   1.013346 1  618             Rx   d 8 01 2D 42 6F 78 20 48 39  Length = 218190 BitCount = 117 ID = 1560
   1.013590 1  618             Rx   d 8 02 2E 30 00 00 00 00 00  Length = 228178 BitCount = 122 ID = 1560
   1.013828 1  4D8             Rx   d 8 0D 8F 00 00 00 D2 03 08  Length = 222198 BitCount = 119 ID = 1240
   1.015833 CAN 1 Status:chip status error active
   1.015833 CAN 2 Status:chip status error active
   1.032879 1  358             Rx   d 8 0F BE 0A 22 00 FA 00 28  Length = 224182 BitCount = 120 ID = 856
   1.037681 1  360             Rx   d 8 0D 8F 00 00 80 00 00 00  Length = 228179 BitCount = 122 ID = 864
   1.037933 1  3E0             Rx   d 8 0D D4 00 00 00 00 00 00  Length = 235936 BitCount = 126 ID = 992
   1.038171 1  420             Rx   d 8 65 CC AD C4 00 00 00 00  Length = 221952 BitCount = 119 ID = 1056
   1.042705 1  518             Rx   d 8 FF D2 FF D2 FF FF FF FF  Length = 228178 BitCount = 122 ID = 1304
   1.052891 1  5D8             Rx   d 8 00 42 59 44 00 00 00 00  Length = 226194 BitCount = 121 ID = 1496
   1.072909 1  458             Rx   d 8 00 00 12 34 00 00 56 78  Length = 226178 BitCount = 121 ID = 1112
   1.082672 1  598             Rx   d 8 00 00 12 34 5A DE 07 4F  Length = 220202 BitCount = 118 ID = 1432
   1.082896 1  158             Rx   d 8 AA AA AA AA AA AA AA AA  Length = 208218 BitCount = 112 ID = 344
   1.102662 1  3D8             Rx   d 8 0D D4 27 10 00 59 F9 00  Length = 218206 BitCount = 117 ID = 984
   1.112906 1  558             Rx   d 8 03 12 00 04 00 59 05 07  Length = 224198 BitCount = 120 ID = 1368
   1.113144 1  4D8             Rx   d 8 0D 8F 00 00 00 D2 03 08  Length = 222182 BitCount = 119 ID = 1240
   1.132828 1  618             Rx   d 8 00 42 61 74 74 65 72 79  Length = 212194 BitCount = 114 ID = 1560
   1.133062 1  618             Rx   d 8 01 2D 42 6F 78 20 48 39  Length = 218190 BitCount = 117 ID = 1560
   1.133306 1  618             Rx   d 8 02 2E 30 00 00 00 00 00  Length = 228178 BitCount = 122 ID = 1560
   1.133546 1  358             Rx   d 8 0F BE 0A 22 00 FA 00 28  Length = 224182 BitCount = 120 ID = 856
   1.137648 1  360             Rx   d 8 0D 8F 00 00 80 00 00 00  Length = 227944 BitCount = 122 ID = 864
   1.137901 1  3E0             Rx   d 8 0D D4 00 00 00 00 00 00  Length = 236170 BitCount = 126 ID = 992
   1.138139 1  420             Rx   d 8 65 CC AD C4 00 00 00 00  Length = 222182 BitCount = 119 ID = 1056
   1.142801 1  518             Rx   d 8 FF D2 FF D2 FF FF FF FF  Length = 228178 BitCount = 122 ID = 1304
   1.152895 1  5D8             Rx   d 8 00 42 59 44 00 00 00 00  Length = 226178 BitCount = 121 ID = 1496
   1.172854 1  458             Rx   d 8 00 00 12 34 00 00 56 78  Length = 226178 BitCount = 121 ID = 1112
   1.182518 1  598             Rx   d 8 00 00 12 34 5A DE 07 4F  Length = 220202 BitCount = 118 ID = 1432
   1.182742 1  158             Rx   d 8 AA AA AA AA AA AA AA AA  Length = 208202 BitCount = 112 ID = 344
   1.202680 1  3D8             Rx   d 8 0D D4 27 10 00 59 F9 00  Length = 218190 BitCount = 117 ID = 984
   1.213004 1  558             Rx   d 8 03 12 00 04 00 59 05 07  Length = 224182 BitCount = 120 ID = 1368
   1.213242 1  4D8             Rx   d 8 0D 8F 00 00 00 D2 03 08  Length = 222182 BitCount = 119 ID = 1240
   1.232917 1  358             Rx   d 8 0F BE 0A 22 00 FA 00 28  Length = 224183 BitCount = 120 ID = 856
   1.237525 1  360             Rx   d 8 0D 8F 00 00 80 00 00 00  Length = 228179 BitCount = 122 ID = 864
   1.237777 1  3E0             Rx   d 8 0D D4 00 00 00 00 00 00  Length = 235937 BitCount = 126 ID = 992
   1.238015 1  420             Rx   d 8 65 CC AD C4 00 00 00 00  Length = 221964 BitCount = 119 ID = 1056
   1.242757 1  518             Rx   d 8 FF D2 FF D2 FF FF FF FF  Length = 228179 BitCount = 122 ID = 1304
   1.252851 1  5D8             Rx   d 8 00 42 59 44 00 00 00 00  Length = 226194 BitCount = 121 ID = 1496
   1.253079 1  618             Rx   d 8 00 42 61 74 74 65 72 79  Length = 212194 BitCount = 114 ID = 1560
   1.253313 1  618             Rx   d 8 01 2D 42 6F 78 20 48 39  Length = 218190 BitCount = 117 ID = 1560
   1.253557 1  618             Rx   d 8 02 2E 30 00 00 00 00 00  Length = 228178 BitCount = 122 ID = 1560
   1.272863 1  458             Rx   d 8 00 00 12 34 00 00 56 78  Length = 226178 BitCount = 121 ID = 1112
   1.282532 1  598             Rx   d 8 00 00 12 34 5A DE 07 4F  Length = 220187 BitCount = 118 ID = 1432
   1.282756 1  158             Rx   d 8 AA AA AA AA AA AA AA AA  Length = 208218 BitCount = 112 ID = 344
   1.302876 1  3D8             Rx   d 8 0D D4 27 10 00 59 F9 00  Length = 218190 BitCount = 117 ID = 984
   1.312882 1  558             Rx   d 8 03 12 00 04 00 59 05 07  Length = 224198 BitCount = 120 ID = 1368
   1.313120 1  4D8             Rx   d 8 0D 8F 00 00 00 D2 03 08  Length = 222198 BitCount = 119 ID = 1240
   1.332858 1  358             Rx   d 8 0F BE 0A 22 00 FA 00 28  Length = 224198 BitCount = 120 ID = 856
   1.337737 1  360             Rx   d 8 0D 8F 00 00 80 00 00 00  Length = 228178 BitCount = 122 ID = 864
   1.337988 1  3E0             Rx   d 8 0D D4 00 00 00 00 00 00  Length = 235948 BitCount = 126 ID = 992
   1.338227 1  420             Rx   d 8 65 CC AD C4 00 00 00 00  Length = 222198 BitCount = 119 ID = 1056
   1.342721 1  518             Rx   d 8 FF D2 FF D2 FF FF FF FF  Length = 228178 BitCount = 122 ID = 1304
   1.352819 1  5D8             Rx   d 8 00 42 59 44 00 00 00 00  Length = 226178 BitCount = 121 ID = 1496
   1.372802 1  618             Rx   d 8 00 42 61 74 74 65 72 79  Length = 212195 BitCount = 114 ID = 1560
   1.373036 1  618             Rx   d 8 01 2D 42 6F 78 20 48 39  Length = 218191 BitCount = 117 ID = 1560
   1.373280 1  618             Rx   d 8 02 2E 30 00 00 00 00 00  Length = 228179 BitCount = 122 ID = 1560
   1.373522 1  458             Rx   d 8 00 00 12 34 00 00 56 78  Length = 226194 BitCount = 121 ID = 1112
   1.382428 1  598             Rx   d 8 00 00 12 34 5A DE 07 4F  Length = 220202 BitCount = 118 ID = 1432
   1.382652 1  158             Rx   d 8 AA AA AA AA AA AA AA AA  Length = 208203 BitCount = 112 ID = 344
   1.402644 1  3D8             Rx   d 8 0D D4 27 10 00 59 F9 00  Length = 218190 BitCount = 117 ID = 984
   1.412814 1  558             Rx   d 8 03 12 00 04 00 59 05 07  Length = 224182 BitCount = 120 ID = 1368
   1.413052 1  4D8             Rx   d 8 0D 8F 00 00 00 D2 03 08  Length = 222182 BitCount = 119 ID = 1240
   1.432811 1  358             Rx   d 8 0F BE 0A 22 00 FA 00 28  Length = 224183 BitCount = 120 ID = 856
   1.437705 1  360             Rx   d 8 0D 8F 00 00 80 00 00 00  Length = 228178 BitCount = 122 ID = 864
   1.437957 1  3E0             Rx   d 8 0D D4 00 00 00 00 00 00  Length = 235936 BitCount = 126 ID = 992
   1.438195 1  420             Rx   d 8 65 CC AD C4 00 00 00 00  Length = 221964 BitCount = 119 ID = 1056
   1.442671 1  518             Rx   d 8 FF D2 FF D2 FF FF FF FF  Length = 228178 BitCount = 122 ID = 1304
   1.452969 1  5D8             Rx   d 8 00 42 59 44 00 00 00 00  Length = 226178 BitCount = 121 ID = 1496
   1.472887 1  458             Rx   d 8 00 00 12 34 00 00 56 78  Length = 226178 BitCount = 121 ID = 1112
   1.482769 1  598             Rx   d 8 00 00 12 34 5A DE 07 4F  Length = 220186 BitCount = 118 ID = 1432
   1.482993 1  158             Rx   d 8 AA AA AA AA AA AA AA AA  Length = 208202 BitCount = 112 ID = 344
   1.492876 1  618             Rx   d 8 00 42 61 74 74 65 72 79  Length = 212195 BitCount = 114 ID = 1560
   1.493110 1  618             Rx   d 8 01 2D 42 6F 78 20 48 39  Length = 218191 BitCount = 117 ID = 1560
   1.493354 1  618             Rx   d 8 02 2E 30 00 00 00 00 00  Length = 228179 BitCount = 122 ID = 1560
   1.502664 1  3D8             Rx   d 8 0D D4 27 10 00 59 F9 00  Length = 218191 BitCount = 117 ID = 984
   1.512850 1  558             Rx   d 8 03 12 00 04 00 59 05 07  Length = 224182 BitCount = 120 ID = 1368
   1.513088 1  4D8             Rx   d 8 0D 8F 00 00 00 D2 03 08  Length = 222198 BitCount = 119 ID = 1240
   1.532802 1  358             Rx   d 8 0F BE 0A 22 00 FA 00 28  Length = 224182 BitCount = 120 ID = 856
   1.537668 1  360             Rx   d 8 0D 8F 00 00 80 00 00 00  Length = 228178 BitCount = 122 ID = 864
   1.537920 1  3E0             Rx   d 8 0D D4 00 00 00 00 00 00  Length = 235948 BitCount = 126 ID = 992
   1.538157 1  420             Rx   d 8 65 CC AD C5 00 00 00 00  Length = 220202 BitCount = 118 ID = 1056
   1.542665 1  518             Rx   d 8 FF D2 FF D2 FF FF FF FF  Length = 228178 BitCount = 122 ID = 1304
   1.552807 1  5D8             Rx   d 8 00 42 59 44 00 00 00 00  Length = 226178 BitCount = 121 ID = 1496
   1.572803 1  458             Rx   d 8 00 00 12 34 00 00 56 78  Length = 226178 BitCount = 121 ID = 1112
   1.582490 1  598             Rx   d 8 00 00 12 34 5A DE 07 4F  Length = 220202 BitCount = 118 ID = 1432
   1.582714 1  158             Rx   d 8 AA AA AA AA AA AA AA AA  Length = 208218 BitCount = 112 ID = 344
   1.602754 1  3D8             Rx   d 8 0D D4 27 10 00 59 F9 00  Length = 218190 BitCount = 117 ID = 984
   1.612888 1  558             Rx   d 8 03 12 00 04 00 59 05 07  Length = 224182 BitCount = 120 ID = 1368
   1.613116 1  618             Rx   d 8 00 42 61 74 74 65 72 79  Length = 212194 BitCount = 114 ID = 1560
