   0.004102 1  360             Rx   d 8 0D 90 00 00 80 00 00 00  Length = 234186 BitCount = 125 ID = 864
   0.004348 1  3E0             Rx   d 8 0D CA 00 00 00 00 00 00  Length = 229956 BitCount = 123 ID = 992
   0.004584 1  420             Rx   d 8 65 CC AE 86 00 00 00 00  Length = 219952 BitCount = 118 ID = 1056
   0.020186 1  3D8             Rx   d 8 0D CA 27 10 00 58 F9 00  Length = 222182 BitCount = 119 ID = 984
   0.030194 1  558             Rx   d 8 03 12 00 04 00 59 05 07  Length = 224183 BitCount = 120 ID = 1368
   0.030432 1  4D8             Rx   d 8 0D 90 00 00 00 D2 03 08  Length = 222183 BitCount = 119 ID = 1240
   0.035869 CAN 1 Status:chip status error active
   0.035869 CAN 2 Status:chip status error active
   0.050175 1  618             Rx   d 8 00 42 61 74 74 65 72 79  Length = 212210 BitCount = 114 ID = 1560
   0.050409 1  618             Rx   d 8 01 2D 42 6F 78 20 48 39  Length = 218190 BitCount = 117 ID = 1560
   0.050653 1  618             Rx   d 8 02 2E 30 00 00 00 00 00  Length = 228178 BitCount = 122 ID = 1560
   0.050893 1  358             Rx   d 8 0F BE 0A 22 00 FA 00 FA  Length = 224182 BitCount = 120 ID = 856
   0.059837 1  518             Rx   d 8 FF DC FF D2 FF FF FF FF  Length = 230174 BitCount = 123 ID = 1304
   0.070209 1  5D8             Rx   d 8 00 42 59 44 00 00 00 00  Length = 226178 BitCount = 121 ID = 1496
   0.090351 1  458             Rx   d 8 00 00 12 34 00 00 56 78  Length = 226178 BitCount = 121 ID = 1112
   0.100138 1  598             Rx   d 8 00 00 12 34 5A DE 07 4F  Length = 220186 BitCount = 118 ID = 1432
   0.100362 1  158             Rx   d 8 AA AA AA AA AA AA AA AA  Length = 208202 BitCount = 112 ID = 344
   0.104070 1  360             Rx   d 8 0D 90 00 00 80 00 00 00  Length = 233937 BitCount = 125 ID = 864
   0.104316 1  3E0             Rx   d 8 0D CA 00 00 00 00 00 00  Length = 230175 BitCount = 123 ID = 992
   0.104552 1  420             Rx   d 8 65 CC AE 86 00 00 00 00  Length = 220187 BitCount = 118 ID = 1056
   0.120050 1  3D8             Rx   d 8 0D CA 27 10 00 58 F9 00  Length = 222183 BitCount = 119 ID = 984
   0.130212 1  558             Rx   d 8 03 12 00 04 00 59 05 07  Length = 224198 BitCount = 120 ID = 1368
   0.130450 1  4D8             Rx   d 8 0D 90 00 00 00 D2 03 08  Length = 222198 BitCount = 119 ID = 1240
   0.150165 1  358             Rx   d 8 0F BE 0A 22 00 FA 00 FA  Length = 224182 BitCount = 120 ID = 856
   0.160227 1  518             Rx   d 8 FF DC FF D2 FF FF FF FF  Length = 230174 BitCount = 123 ID = 1304
   0.170237 1  5D8             Rx   d 8 00 42 59 44 00 00 00 00  Length = 226178 BitCount = 121 ID = 1496
   0.170465 1  618             Rx   d 8 00 42 61 74 74 65 72 79  Length = 212194 BitCount = 114 ID = 1560
   0.170699 1  618             Rx   d 8 01 2D 42 6F 78 20 48 39  Length = 218190 BitCount = 117 ID = 1560
   0.170943 1  618             Rx   d 8 02 2E 30 00 00 00 00 00  Length = 228178 BitCount = 122 ID = 1560
   0.190213 1  458             Rx   d 8 00 00 12 34 00 00 56 78  Length = 226178 BitCount = 121 ID = 1112
   0.199874 1  598             Rx   d 8 00 00 12 34 5A DE 07 4F  Length = 220187 BitCount = 118 ID = 1432
   0.200098 1  158             Rx   d 8 AA AA AA AA AA AA AA AA  Length = 208202 BitCount = 112 ID = 344
   0.204038 1  360             Rx   d 8 0D 90 00 00 80 00 00 00  Length = 234186 BitCount = 125 ID = 864
   0.204284 1  3E0             Rx   d 8 0D CA 00 00 00 00 00 00  Length = 229940 BitCount = 123 ID = 992
   0.204520 1  420             Rx   d 8 65 CC AE 86 00 00 00 00  Length = 219952 BitCount = 118 ID = 1056
   0.220016 1  3D8             Rx   d 8 0D CA 27 10 00 58 F9 00  Length = 222182 BitCount = 119 ID = 984
   0.230190 1  558             Rx   d 8 03 12 00 04 00 59 05 07  Length = 224182 BitCount = 120 ID = 1368
   0.230428 1  4D8             Rx   d 8 0D 90 00 00 00 D2 03 08  Length = 222182 BitCount = 119 ID = 1240
   0.250174 1  358             Rx   d 8 0F BE 0A 22 00 FA 00 FA  Length = 224183 BitCount = 120 ID = 856
   0.259997 1  518             Rx   d 8 FF DC FF D2 FF FF FF FF  Length = 230175 BitCount = 123 ID = 1304
   0.270141 1  5D8             Rx   d 8 00 42 59 44 00 00 00 00  Length = 226178 BitCount = 121 ID = 1496
   0.290103 1  618             Rx   d 8 00 42 61 74 74 65 72 79  Length = 212194 BitCount = 114 ID = 1560
   0.290337 1  618             Rx   d 8 01 2D 42 6F 78 20 48 39  Length = 218206 BitCount = 117 ID = 1560
   0.290581 1  618             Rx   d 8 02 2E 30 00 00 00 00 00  Length = 228179 BitCount = 122 ID = 1560
   0.290823 1  458             Rx   d 8 00 00 12 34 00 00 56 78  Length = 226179 BitCount = 121 ID = 1112
   0.299741 1  598             Rx   d 8 00 00 12 34 5A DE 07 4F  Length = 220186 BitCount = 118 ID = 1432
   0.299965 1  158             Rx   d 8 AA AA AA AA AA AA AA AA  Length = 208218 BitCount = 112 ID = 344
   0.304023 1  360             Rx   d 8 0D 90 00 00 80 00 00 00  Length = 233952 BitCount = 125 ID = 864
   0.304270 1  3E0             Rx   d 8 0D CA 00 00 00 00 00 00  Length = 230174 BitCount = 123 ID = 992
   0.304506 1  420             Rx   d 8 65 CC AE 86 00 00 00 00  Length = 220186 BitCount = 118 ID = 1056
   0.320026 1  3D8             Rx   d 8 0D CA 27 10 00 58 F9 00  Length = 222183 BitCount = 119 ID = 984
   0.330192 1  558             Rx   d 8 03 12 00 04 00 59 05 07  Length = 224182 BitCount = 120 ID = 1368
   0.330428 1  4D8             Rx   d 8 0D 91 00 00 00 D2 03 08  Length = 220202 BitCount = 118 ID = 1240
   0.350314 1  358             Rx   d 8 0F BE 0A 22 00 FA 00 FA  Length = 224183 BitCount = 120 ID = 856
   0.360081 1  518             Rx   d 8 FF DC FF D2 FF FF FF FF  Length = 230174 BitCount = 123 ID = 1304
   0.370161 1  5D8             Rx   d 8 00 42 59 44 00 00 00 00  Length = 226179 BitCount = 121 ID = 1496
   0.390153 1  458             Rx   d 8 00 00 12 34 00 00 56 78  Length = 226178 BitCount = 121 ID = 1112
   0.399983 1  598             Rx   d 8 00 00 12 34 5A DE 07 4F  Length = 220187 BitCount = 118 ID = 1432
   0.400207 1  158             Rx   d 8 AA AA AA AA AA AA AA AA  Length = 208202 BitCount = 112 ID = 344
   0.403893 1  360             Rx   d 8 0D 90 00 00 80 00 00 00  Length = 234186 BitCount = 125 ID = 864
   0.404140 1  3E0             Rx   d 8 0D CA 00 00 00 00 00 00  Length = 230190 BitCount = 123 ID = 992
   0.404376 1  420             Rx   d 8 65 CC AE 86 00 00 00 00  Length = 220186 BitCount = 118 ID = 1056
   0.410162 1  618             Rx   d 8 00 42 61 74 74 65 72 79  Length = 212194 BitCount = 114 ID = 1560
   0.410396 1  618             Rx   d 8 01 2D 42 6F 78 20 48 39  Length = 218190 BitCount = 117 ID = 1560
   0.410640 1  618             Rx   d 8 02 2E 30 00 00 00 00 00  Length = 228194 BitCount = 122 ID = 1560
   0.420094 1  3D8             Rx   d 8 0D CA 27 10 00 58 F9 00  Length = 222182 BitCount = 119 ID = 984
   0.430230 1  558             Rx   d 8 03 12 00 04 00 59 05 07  Length = 224198 BitCount = 120 ID = 1368
   0.430468 1  4D8             Rx   d 8 0D 90 00 00 00 D2 03 08  Length = 222182 BitCount = 119 ID = 1240
   0.450181 1  358             Rx   d 8 0F BE 0A 22 00 FA 00 FA  Length = 224182 BitCount = 120 ID = 856
   0.460005 1  518             Rx   d 8 FF DC FF D2 FF FF FF FF  Length = 230175 BitCount = 123 ID = 1304
   0.470179 1  5D8             Rx   d 8 00 42 59 44 00 00 00 00  Length = 226179 BitCount = 121 ID = 1496
   0.490147 1  458             Rx   d 8 00 00 12 34 00 00 56 78  Length = 226178 BitCount = 121 ID = 1112
   0.500017 1  598             Rx   d 8 00 00 12 34 5A DE 07 4F  Length = 220186 BitCount = 118 ID = 1432
   0.500241 1  158             Rx   d 8 AA AA AA AA AA AA AA AA  Length = 208202 BitCount = 112 ID = 344
   0.503979 1  360             Rx   d 8 0D 90 00 00 80 00 00 00  Length = 233952 BitCount = 125 ID = 864
   0.504226 1  3E0             Rx   d 8 0D CA 00 00 00 00 00 00  Length = 230175 BitCount = 123 ID = 992
   0.504462 1  420             Rx   d 8 65 CC AE 86 00 00 00 00  Length = 220187 BitCount = 118 ID = 1056
   0.520044 1  3D8             Rx   d 8 0D CA 27 10 00 58 F9 00  Length = 222182 BitCount = 119 ID = 984
   0.530190 1  558             Rx   d 8 03 12 00 04 00 59 05 07  Length = 224183 BitCount = 120 ID = 1368
   0.530418 1  618             Rx   d 8 00 42 61 74 74 65 72 79  Length = 212194 BitCount = 114 ID = 1560
   0.530652 1  618             Rx   d 8 01 2D 42 6F 78 20 48 39  Length = 218190 BitCount = 117 ID = 1560
   0.530896 1  618             Rx   d 8 02 2E 30 00 00 00 00 00  Length = 228178 BitCount = 122 ID = 1560
   0.531134 1  4D8             Rx   d 8 0D 90 00 00 00 D2 03 08  Length = 222182 BitCount = 119 ID = 1240
   0.550199 1  358             Rx   d 8 0F BE 0A 22 00 FA 00 FA  Length = 224198 BitCount = 120 ID = 856
   0.559995 1  518             Rx   d 8 FF DC FF D2 FF FF FF FF  Length = 230175 BitCount = 123 ID = 1304
   0.570501 1  5D8             Rx   d 8 00 42 59 44 00 00 00 00  Length = 226178 BitCount = 121 ID = 1496
   0.590647 1  458             Rx   d 8 00 00 12 34 00 00 56 78  Length = 226179 BitCount = 121 ID = 1112
   0.600383 1  598             Rx   d 8 00 00 12 34 5A DE 07 4F  Length = 220186 BitCount = 118 ID = 1432
   0.600607 1  158             Rx   d 8 AA AA AA AA AA AA AA AA  Length = 208202 BitCount = 112 ID = 344
   0.604028 1  360             Rx   d 8 0D 90 00 00 80 00 00 00  Length = 234170 BitCount = 125 ID = 864
   0.604273 1  3E0             Rx   d 8 0D CA 00 00 00 00 00 00  Length = 229940 BitCount = 123 ID = 992
   0.604511 1  420             Rx   d 8 65 CC AE 87 00 00 00 00  Length = 221952 BitCount = 119 ID = 1056
   0.620282 1  3D8             Rx   d 8 0D CA 27 10 00 58 F9 00  Length = 222182 BitCount = 119 ID = 984
   0.630432 1  558             Rx   d 8 03 12 00 04 00 59 05 07  Length = 224198 BitCount = 120 ID = 1368
   0.630670 1  4D8             Rx   d 8 0D 90 00 00 00 D2 03 08  Length = 222182 BitCount = 119 ID = 1240
   0.650232 1  618             Rx   d 8 00 42 61 74 74 65 72 79  Length = 212194 BitCount = 114 ID = 1560
   0.650466 1  618             Rx   d 8 01 2D 42 6F 78 20 48 39  Length = 218190 BitCount = 117 ID = 1560
   0.650710 1  618             Rx   d 8 02 2E 30 00 00 00 00 00  Length = 228178 BitCount = 122 ID = 1560
   0.650950 1  358             Rx   d 8 0F BE 0A 22 00 FA 00 FA  Length = 224182 BitCount = 120 ID = 856
   0.660014 1  518             Rx   d 8 FF DC FF D2 FF FF FF FF  Length = 230174 BitCount = 123 ID = 1304
   0.670167 1  5D8             Rx   d 8 00 42 59 44 00 00 00 00  Length = 226194 BitCount = 121 ID = 1496
   0.690149 1  458             Rx   d 8 00 00 12 34 00 00 56 78  Length = 226179 BitCount = 121 ID = 1112
   0.699859 1  598             Rx   d 8 00 00 12 34 5A DE 07 4F  Length = 220186 BitCount = 118 ID = 1432
   0.700083 1  158             Rx   d 8 AA AA AA AA AA AA AA AA  Length = 208202 BitCount = 112 ID = 344
   0.704001 1  360             Rx   d 8 0D 90 00 00 80 00 00 00  Length = 233936 BitCount = 125 ID = 864
   0.704247 1  3E0             Rx   d 8 0D CA 00 00 00 00 00 00  Length = 230174 BitCount = 123 ID = 992
   0.704485 1  420             Rx   d 8 65 CC AE 87 00 00 00 00  Length = 222183 BitCount = 119 ID = 1056
   0.720000 1  3D8             Rx   d 8 0D CA 27 10 00 58 F9 00  Length = 222198 BitCount = 119 ID = 984
   0.730188 1  558             Rx   d 8 03 12 00 04 00 59 05 07  Length = 224182 BitCount = 120 ID = 1368
   0.730426 1  4D8             Rx   d 8 0D 90 00 00 00 D2 03 08  Length = 222182 BitCount = 119 ID = 1240
   0.750192 1  358             Rx   d 8 0F BE 0A 22 00 FA 00 FA  Length = 224182 BitCount = 120 ID = 856
   0.760154 1  518             Rx   d 8 FF DC FF D2 FF FF FF FF  Length = 230190 BitCount = 123 ID = 1304
   0.770205 1  5D8             Rx   d 8 00 42 59 44 00 00 00 00  Length = 226178 BitCount = 121 ID = 1496
   0.770433 1  618             Rx   d 8 00 42 61 74 74 65 72 79  Length = 212194 BitCount = 114 ID = 1560
   0.770667 1  618             Rx   d 8 01 2D 42 6F 78 20 48 39  Length = 218190 BitCount = 117 ID = 1560
   0.770911 1  618             Rx   d 8 02 2E 30 00 00 00 00 00  Length = 228178 BitCount = 122 ID = 1560
   0.790179 1  458             Rx   d 8 00 00 12 34 00 00 56 78  Length = 226178 BitCount = 121 ID = 1112
   0.799995 1  598             Rx   d 8 00 00 12 34 5A DE 07 4F  Length = 220202 BitCount = 118 ID = 1432
   0.800219 1  158             Rx   d 8 AA AA AA AA AA AA AA AA  Length = 208218 BitCount = 112 ID = 344
   0.803975 1  360             Rx   d 8 0D 90 00 00 80 00 00 00  Length = 234170 BitCount = 125 ID = 864
   0.804221 1  3E0             Rx   d 8 0D CA 00 00 00 00 00 00  Length = 229940 BitCount = 123 ID = 992
   0.804459 1  420             Rx   d 8 65 CC AE 87 00 00 00 00  Length = 221952 BitCount = 119 ID = 1056
   0.820005 1  3D8             Rx   d 8 0D CA 27 10 00 58 F9 00  Length = 222182 BitCount = 119 ID = 984
   0.830390 1  558             Rx   d 8 03 12 00 04 00 59 05 07  Length = 224183 BitCount = 120 ID = 1368
   0.830628 1  4D8             Rx   d 8 0D 90 00 00 00 D2 03 08  Length = 222182 BitCount = 119 ID = 1240
   0.850130 1  358             Rx   d 8 0F BE 0A 22 00 FA 00 FA  Length = 224182 BitCount = 120 ID = 856
   0.860016 1  518             Rx   d 8 FF DC FF D2 FF FF FF FF  Length = 230174 BitCount = 123 ID = 1304
   0.870188 1  5D8             Rx   d 8 00 42 59 44 00 00 00 00  Length = 226178 BitCount = 121 ID = 1496
   0.890157 1  618             Rx   d 8 00 42 61 74 74 65 72 79  Length = 212194 BitCount = 114 ID = 1560
   0.890391 1  618             Rx   d 8 01 2D 42 6F 78 20 48 39  Length = 218190 BitCount = 117 ID = 1560
   0.890635 1  618             Rx   d 8 02 2E 30 00 00 00 00 00  Length = 228179 BitCount = 122 ID = 1560
   0.890877 1  458             Rx   d 8 00 00 12 34 00 00 56 78  Length = 226179 BitCount = 121 ID = 1112
   0.899779 1  598             Rx   d 8 00 00 12 34 5A DE 07 4F  Length = 220186 BitCount = 118 ID = 1432
   0.900003 1  158             Rx   d 8 AA AA AA AA AA AA AA AA  Length = 208202 BitCount = 112 ID = 344
   0.903973 1  360             Rx   d 8 0D 90 00 00 80 00 00 00  Length = 233937 BitCount = 125 ID = 864
   0.904219 1  3E0             Rx   d 8 0D CA 00 00 00 00 00 00  Length = 230174 BitCount = 123 ID = 992
   0.904457 1  420             Rx   d 8 65 CC AE 87 00 00 00 00  Length = 222182 BitCount = 119 ID = 1056
   0.920135 1  3D8             Rx   d 8 0D CA 27 10 00 58 F9 00  Length = 222183 BitCount = 119 ID = 984
   0.930148 1  558             Rx   d 8 03 12 00 04 00 59 05 07  Length = 224198 BitCount = 120 ID = 1368
   0.930384 1  4D8             Rx   d 8 0D 91 00 00 00 D2 03 08  Length = 220202 BitCount = 118 ID = 1240
   0.950124 1  358             Rx   d 8 0F BE 0A 22 00 FA 00 FA  Length = 224182 BitCount = 120 ID = 856
   0.959868 1  518             Rx   d 8 FF DC FF D2 FF FF FF FF  Length = 230174 BitCount = 123 ID = 1304
   0.970110 1  5D8             Rx   d 8 00 42 59 44 00 00 00 00  Length = 226194 BitCount = 121 ID = 1496
   0.990331 1  458             Rx   d 8 00 00 12 34 00 00 56 78  Length = 226178 BitCount = 121 ID = 1112
   1.000041 1  598             Rx   d 8 00 00 12 34 5A DE 07 4F  Length = 220186 BitCount = 118 ID = 1432
   1.000265 1  158             Rx   d 8 AA AA AA AA AA AA AA AA  Length = 208218 BitCount = 112 ID = 344
   1.003933 1  360             Rx   d 8 0D 90 00 00 80 00 00 00  Length = 234170 BitCount = 125 ID = 864
   1.004179 1  3E0             Rx   d 8 0D CA 00 00 00 00 00 00  Length = 229940 BitCount = 123 ID = 992
   1.004417 1  420             Rx   d 8 65 CC AE 87 00 00 00 00  Length = 221952 BitCount = 119 ID = 1056
   1.010193 1  618             Rx   d 8 00 42 61 74 74 65 72 79  Length = 212194 BitCount = 114 ID = 1560
   1.010427 1  618             Rx   d 8 01 2D 42 6F 78 20 48 39  Length = 218190 BitCount = 117 ID = 1560
   1.010671 1  618             Rx   d 8 02 2E 30 00 00 00 00 00  Length = 228178 BitCount = 122 ID = 1560
   1.020025 1  3D8             Rx   d 8 0D CA 27 10 00 58 F9 00  Length = 222182 BitCount = 119 ID = 984
   1.030179 1  558             Rx   d 8 03 12 00 04 00 59 05 07  Length = 224183 BitCount = 120 ID = 1368
   1.030417 1  4D8             Rx   d 8 0D 90 00 00 00 D2 03 08  Length = 222182 BitCount = 119 ID = 1240
   1.035869 CAN 1 Status:chip status error active
   1.035869 CAN 2 Status:chip status error active
   1.050118 1  358             Rx   d 8 0F BE 0A 22 00 FA 00 FA  Length = 224198 BitCount = 120 ID = 856
   1.059850 1  518             Rx   d 8 FF DC FF D2 FF FF FF FF  Length = 230175 BitCount = 123 ID = 1304
   1.071408 1  5D8             Rx   d 8 00 42 59 44 00 00 00 00  Length = 226178 BitCount = 121 ID = 1496
   1.090214 1  458             Rx   d 8 00 00 12 34 00 00 56 78  Length = 226179 BitCount = 121 ID = 1112
   1.099962 1  598             Rx   d 8 00 00 12 34 5A DE 07 4F  Length = 220186 BitCount = 118 ID = 1432
   1.100186 1  158             Rx   d 8 AA AA AA AA AA AA AA AA  Length = 208202 BitCount = 112 ID = 344
   1.103990 1  360             Rx   d 8 0D 90 00 00 80 00 00 00  Length = 233937 BitCount = 125 ID = 864
   1.104237 1  3E0             Rx   d 8 0D CA 00 00 00 00 00 00  Length = 230175 BitCount = 123 ID = 992
   1.104475 1  420             Rx   d 8 65 CC AE 87 00 00 00 00  Length = 222183 BitCount = 119 ID = 1056
   1.120071 1  3D8             Rx   d 8 0D CA 27 10 00 58 F9 00  Length = 222182 BitCount = 119 ID = 984
   1.130207 1  558             Rx   d 8 03 12 00 04 00 59 05 07  Length = 224182 BitCount = 120 ID = 1368
   1.130435 1  618             Rx   d 8 00 42 61 74 74 65 72 79  Length = 212194 BitCount = 114 ID = 1560
   1.130669 1  618             Rx   d 8 01 2D 42 6F 78 20 48 39  Length = 218190 BitCount = 117 ID = 1560
   1.130913 1  618             Rx   d 8 02 2E 30 00 00 00 00 00  Length = 228178 BitCount = 122 ID = 1560
   1.131151 1  4D8             Rx   d 8 0D 90 00 00 00 D2 03 08  Length = 222183 BitCount = 119 ID = 1240
   1.150368 1  358             Rx   d 8 0F BE 0A 22 00 FA 00 FA  Length = 224182 BitCount = 120 ID = 856
   1.160164 1  518             Rx   d 8 FF DC FF D2 FF FF FF FF  Length = 230174 BitCount = 123 ID = 1304
   1.170126 1  5D8             Rx   d 8 00 42 59 44 00 00 00 00  Length = 226179 BitCount = 121 ID = 1496
   1.190124 1  458             Rx   d 8 00 00 12 34 00 00 56 78  Length = 226178 BitCount = 121 ID = 1112
   1.199820 1  598             Rx   d 8 00 00 12 34 5A DE 07 4F  Length = 220186 BitCount = 118 ID = 1432
   1.200044 1  158             Rx   d 8 AA AA AA AA AA AA AA AA  Length = 208203 BitCount = 112 ID = 344
   1.203969 1  360             Rx   d 8 0D 90 00 00 80 00 00 00  Length = 234170 BitCount = 125 ID = 864
   1.204214 1  3E0             Rx   d 8 0D CA 00 00 00 00 00 00  Length = 229940 BitCount = 123 ID = 992
   1.204452 1  420             Rx   d 8 65 CC AE 87 00 00 00 00  Length = 221952 BitCount = 119 ID = 1056
   1.220033 1  3D8             Rx   d 8 0D CA 27 10 00 58 F9 00  Length = 222182 BitCount = 119 ID = 984
   1.230183 1  558             Rx   d 8 03 12 00 04 00 59 05 07  Length = 224182 BitCount = 120 ID = 1368
   1.230421 1  4D8             Rx   d 8 0D 90 00 00 00 D2 03 08  Length = 222182 BitCount = 119 ID = 1240
   1.250131 1  618             Rx   d 8 00 42 61 74 74 65 72 79  Length = 212210 BitCount = 114 ID = 1560
   1.250365 1  618             Rx   d 8 01 2D 42 6F 78 20 48 39  Length = 218206 BitCount = 117 ID = 1560
   1.250609 1  618             Rx   d 8 02 2E 30 00 00 00 00 00  Length = 228178 BitCount = 122 ID = 1560
   1.250849 1  358             Rx   d 8 0F BE 0A 22 00 FA 00 FA  Length = 224182 BitCount = 120 ID = 856
   1.259779 1  518             Rx   d 8 FF DC FF D2 FF FF FF FF  Length = 230190 BitCount = 123 ID = 1304
   1.270116 1  5D8             Rx   d 8 00 42 59 44 00 00 00 00  Length = 226178 BitCount = 121 ID = 1496
   1.290130 1  458             Rx   d 8 00 00 12 34 00 00 56 78  Length = 226194 BitCount = 121 ID = 1112
   1.299834 1  598             Rx   d 8 00 00 12 34 5A DE 07 4F  Length = 220187 BitCount = 118 ID = 1432
   1.300058 1  158             Rx   d 8 AA AA AA AA AA AA AA AA  Length = 208202 BitCount = 112 ID = 344
   1.303962 1  360             Rx   d 8 0D 90 00 00 80 00 00 00  Length = 233936 BitCount = 125 ID = 864
   1.304208 1  3E0             Rx   d 8 0D CA 00 00 00 00 00 00  Length = 230174 BitCount = 123 ID = 992
   1.304447 1  420             Rx   d 8 65 CC AE 87 00 00 00 00  Length = 222182 BitCount = 119 ID = 1056
   1.320037 1  3D8             Rx   d 8 0D CA 27 10 00 58 F9 00  Length = 222182 BitCount = 119 ID = 984
   1.330169 1  558             Rx   d 8 03 12 00 04 00 59 05 07  Length = 224182 BitCount = 120 ID = 1368
   1.330407 1  4D8             Rx   d 8 0D 90 00 00 00 D2 03 08  Length = 222198 BitCount = 119 ID = 1240
   1.350175 1  358             Rx   d 8 0F BE 0A 22 00 FA 00 FA  Length = 224182 BitCount = 120 ID = 856
   1.359991 1  518             Rx   d 8 FF DC FF D2 FF FF FF FF  Length = 230174 BitCount = 123 ID = 1304
   1.370112 1  5D8             Rx   d 8 00 42 59 44 00 00 00 00  Length = 226178 BitCount = 121 ID = 1496
   1.370340 1  618             Rx   d 8 00 42 61 74 74 65 72 79  Length = 212194 BitCount = 114 ID = 1560
   1.370574 1  618             Rx   d 8 01 2D 42 6F 78 20 48 39  Length = 218190 BitCount = 117 ID = 1560
   1.370818 1  618             Rx   d 8 02 2E 30 00 00 00 00 00  Length = 228194 BitCount = 122 ID = 1560
   1.390128 1  458             Rx   d 8 00 00 12 34 00 00 56 78  Length = 226194 BitCount = 121 ID = 1112
   1.399858 1  598             Rx   d 8 00 00 12 34 5A DE 07 4F  Length = 220187 BitCount = 118 ID = 1432
   1.400082 1  158             Rx   d 8 AA AA AA AA AA AA AA AA  Length = 208203 BitCount = 112 ID = 344
   1.404000 1  360             Rx   d 8 0D 90 00 00 80 00 00 00  Length = 234170 BitCount = 125 ID = 864
   1.404246 1  3E0             Rx   d 8 0D CA 00 00 00 00 00 00  Length = 229940 BitCount = 123 ID = 992
   1.404484 1  420             Rx   d 8 65 CC AE 87 00 00 00 00  Length = 221964 BitCount = 119 ID = 1056
   1.420008 1  3D8             Rx   d 8 0D CA 27 10 00 58 F9 00  Length = 222198 BitCount = 119 ID = 984
   1.430317 1  558             Rx   d 8 03 12 00 04 00 59 05 07  Length = 224183 BitCount = 120 ID = 1368
   1.430555 1  4D8             Rx   d 8 0D 90 00 00 00 D2 03 08  Length = 222183 BitCount = 119 ID = 1240
   1.450131 1  358             Rx   d 8 0F BE 0A 22 00 FA 00 FA  Length = 224183 BitCount = 120 ID = 856
   1.459861 1  518             Rx   d 8 FF DC FF D2 FF FF FF FF  Length = 230174 BitCount = 123 ID = 1304
   1.470129 1  5D8             Rx   d 8 00 42 59 44 00 00 00 00  Length = 226178 BitCount = 121 ID = 1496
   1.490136 1  618             Rx   d 8 00 42 61 74 74 65 72 79  Length = 212194 BitCount = 114 ID = 1560
   1.490370 1  618             Rx   d 8 01 2D 42 6F 78 20 48 39  Length = 218190 BitCount = 117 ID = 1560
   1.490614 1  618             Rx   d 8 02 2E 30 00 00 00 00 00  Length = 228194 BitCount = 122 ID = 1560
   1.490856 1  458             Rx   d 8 00 00 12 34 00 00 56 78  Length = 226179 BitCount = 121 ID = 1112
   1.499760 1  598             Rx   d 8 00 00 12 34 5A DE 07 4F  Length = 220186 BitCount = 118 ID = 1432
   1.499984 1  158             Rx   d 8 AA AA AA AA AA AA AA AA  Length = 208202 BitCount = 112 ID = 344
   1.503968 1  360             Rx   d 8 0D 90 00 00 80 00 00 00  Length = 233937 BitCount = 125 ID = 864
   1.504214 1  3E0             Rx   d 8 0D CA 00 00 00 00 00 00  Length = 230175 BitCount = 123 ID = 992
   1.504452 1  420             Rx   d 8 65 CC AE 87 00 00 00 00  Length = 222198 BitCount = 119 ID = 1056
   1.519992 1  3D8             Rx   d 8 0D CA 27 10 00 58 F9 00  Length = 222183 BitCount = 119 ID = 984
   1.530171 1  558             Rx   d 8 03 12 00 04 00 59 05 07  Length = 224182 BitCount = 120 ID = 1368
   1.530409 1  4D8             Rx   d 8 0D 90 00 00 00 D2 03 08  Length = 222182 BitCount = 119 ID = 1240
   1.550131 1  358             Rx   d 8 0F BE 0A 22 00 FA 00 FA  Length = 224198 BitCount = 120 ID = 856
   1.559865 1  518             Rx   d 8 FF DC FF D2 FF FF FF FF  Length = 230190 BitCount = 123 ID = 1304
   1.570109 1  5D8             Rx   d 8 00 42 59 44 00 00 00 00  Length = 226179 BitCount = 121 ID = 1496
   1.590184 1  458             Rx   d 8 00 00 12 34 00 00 56 78  Length = 226178 BitCount = 121 ID = 1112
   1.599862 1  598             Rx   d 8 00 00 12 34 5A DE 07 4F  Length = 220186 BitCount = 118 ID = 1432
   1.600086 1  158             Rx   d 8 AA AA AA AA AA AA AA AA  Length = 208202 BitCount = 112 ID = 344
   1.603846 1  360             Rx   d 8 0D 90 00 00 80 00 00 00  Length = 234186 BitCount = 125 ID = 864
   1.604092 1  3E0             Rx   d 8 0D CA 00 00 00 00 00 00  Length = 229956 BitCount = 123 ID = 992
   1.604330 1  420             Rx   d 8 65 CC AE 88 00 00 00 00  Length = 221953 BitCount = 119 ID = 1056
   1.610166 1  618             Rx   d 8 00 42 61 74 74 65 72 79  Length = 212194 BitCount = 114 ID = 1560
   1.610400 1  618             Rx   d 8 01 2D 42 6F 78 20 48 39  Length = 218190 BitCount = 117 ID = 1560
   1.610644 1  618             Rx   d 8 02 2E 30 00 00 00 00 00  Length = 228178 BitCount = 122 ID = 1560
   1.619998 1  3D8             Rx   d 8 0D CA 27 10 00 58 F9 00  Length = 222182 BitCount = 119 ID = 984
   1.630168 1  558             Rx   d 8 03 12 00 04 00 59 05 07  Length = 224198 BitCount = 120 ID = 1368
   1.630406 1  4D8             Rx   d 8 0D 90 00 00 00 D2 03 08  Length = 222198 BitCount = 119 ID = 1240
   1.650113 1  358             Rx   d 8 0F BE 0A 22 00 FA 00 FA  Length = 224182 BitCount = 120 ID = 856
   1.659973 1  518             Rx   d 8 FF DC FF D2 FF FF FF FF  Length = 230174 BitCount = 123 ID = 1304
   1.670285 1  5D8             Rx   d 8 00 42 59 44 00 00 00 00  Length = 226194 BitCount = 121 ID = 1496
   1.690183 1  458             Rx   d 8 00 00 12 34 00 00 56 78  Length = 226178 BitCount = 121 ID = 1112
   1.698777 1  360             Rx   d 8 0D 90 00 00 80 00 00 00  Length = 234170 BitCount = 125 ID = 864
   1.699023 1  3E0             Rx   d 8 0D CA 00 00 00 00 00 00  Length = 230174 BitCount = 123 ID = 992
   1.699261 1  420             Rx   d 8 65 CC AE 88 00 00 00 00  Length = 221953 BitCount = 119 ID = 1056
   1.700175 1  598             Rx   d 8 00 00 12 34 5A DE 07 4F  Length = 220187 BitCount = 118 ID = 1432
   1.700399 1  158             Rx   d 8 AA AA AA AA AA AA AA AA  Length = 208203 BitCount = 112 ID = 344
   1.720036 1  3D8             Rx   d 8 0D CA 27 10 00 58 F9 00  Length = 222182 BitCount = 119 ID = 984
   1.730176 1  558             Rx   d 8 03 12 00 04 00 59 05 07  Length = 224182 BitCount = 120 ID = 1368
   1.730404 1  618             Rx   d 8 00 42 61 74 74 65 72 79  Length = 212195 BitCount = 114 ID = 1560
   1.730638 1  618             Rx   d 8 01 2D 42 6F 78 20 48 39  Length = 218191 BitCount = 117 ID = 1560
   1.730882 1  618             Rx   d 8 02 2E 30 00 00 00 00 00  Length = 228194 BitCount = 122 ID = 1560
   1.731120 1  4D8             Rx   d 8 0D 90 00 00 00 D2 03 08  Length = 222198 BitCount = 119 ID = 1240
   1.750174 1  358             Rx   d 8 0F BE 0A 22 00 FA 00 FA  Length = 224198 BitCount = 120 ID = 856
   1.759992 1  518             Rx   d 8 FF DC FF D2 FF FF FF FF  Length = 230174 BitCount = 123 ID = 1304
   1.770105 1  5D8             Rx   d 8 00 42 59 44 00 00 00 00  Length = 226178 BitCount = 121 ID = 1496
   1.790129 1  458             Rx   d 8 00 00 12 34 00 00 56 78  Length = 226194 BitCount = 121 ID = 1112
   1.799815 1  598             Rx   d 8 00 00 12 34 5A DE 07 4F  Length = 220202 BitCount = 118 ID = 1432
   1.800039 1  158             Rx   d 8 AA AA AA AA AA AA AA AA  Length = 208202 BitCount = 112 ID = 344
   1.804153 1  360             Rx   d 8 0D 90 00 00 80 00 00 00  Length = 234170 BitCount = 125 ID = 864
   1.804399 1  3E0             Rx   d 8 0D CA 00 00 00 00 00 00  Length = 230174 BitCount = 123 ID = 992
   1.804637 1  420             Rx   d 8 65 CC AE 88 00 00 00 00  Length = 222182 BitCount = 119 ID = 1056
   1.820084 1  3D8             Rx   d 8 0D CA 27 10 00 58 F9 00  Length = 222183 BitCount = 119 ID = 984
   1.830212 1  558             Rx   d 8 03 12 00 04 00 59 05 07  Length = 224182 BitCount = 120 ID = 1368
   1.830450 1  4D8             Rx   d 8 0D 90 00 00 00 D2 03 08  Length = 222182 BitCount = 119 ID = 1240
   1.850154 1  618             Rx   d 8 00 42 61 74 74 65 72 79  Length = 212194 BitCount = 114 ID = 1560
   1.850388 1  618             Rx   d 8 01 2D 42 6F 78 20 48 39  Length = 218190 BitCount = 117 ID = 1560
   1.850632 1  618             Rx   d 8 02 2E 30 00 00 00 00 00  Length = 228179 BitCount = 122 ID = 1560
   1.850872 1  358             Rx   d 8 0F BE 0A 22 00 FA 00 FA  Length = 224183 BitCount = 120 ID = 856
   1.859998 1  518             Rx   d 8 FF DC FF D2 FF FF FF FF  Length = 230174 BitCount = 123 ID = 1304
   1.870207 1  5D8             Rx   d 8 00 42 59 44 00 00 00 00  Length = 226178 BitCount = 121 ID = 1496
   1.890313 1  458             Rx   d 8 00 00 12 34 00 00 56 78  Length = 226178 BitCount = 121 ID = 1112
   1.900055 1  598             Rx   d 8 00 00 12 34 5A DE 07 4F  Length = 220187 BitCount = 118 ID = 1432
   1.900279 1  158             Rx   d 8 AA AA AA AA AA AA AA AA  Length = 208202 BitCount = 112 ID = 344
   1.903885 1  360             Rx   d 8 0D 90 00 00 80 00 00 00  Length = 233936 BitCount = 125 ID = 864
   1.904133 1  3E0             Rx   d 8 0D CA 00 00 00 00 00 00  Length = 230174 BitCount = 123 ID = 992
   1.904372 1  420             Rx   d 8 65 CC AE 88 00 00 00 00  Length = 222182 BitCount = 119 ID = 1056
   1.920060 1  3D8             Rx   d 8 0D CA 27 10 00 58 F9 00  Length = 222182 BitCount = 119 ID = 984
   1.930198 1  558             Rx   d 8 03 12 00 04 00 59 05 07  Length = 224182 BitCount = 120 ID = 1368
   1.930436 1  4D8             Rx   d 8 0D 90 00 00 00 D2 03 08  Length = 222182 BitCount = 119 ID = 1240
   1.950166 1  358             Rx   d 8 0F BE 0A 22 00 FA 00 FA  Length = 224182 BitCount = 120 ID = 856
   1.959990 1  518             Rx   d 8 FF DC FF D2 FF FF FF FF  Length = 230174 BitCount = 123 ID = 1304
   1.970149 1  5D8             Rx   d 8 00 42 59 44 00 00 00 00  Length = 226178 BitCount = 121 ID = 1496
   1.970377 1  618             Rx   d 8 00 42 61 74 74 65 72 79  Length = 212194 BitCount = 114 ID = 1560
   1.970611 1  618             Rx   d 8 01 2D 42 6F 78 20 48 39  Length = 218190 BitCount = 117 ID = 1560
   1.970855 1  618             Rx   d 8 02 2E 30 00 00 00 00 00  Length = 228178 BitCount = 122 ID = 1560
   1.990153 1  458             Rx   d 8 00 00 12 34 00 00 56 78  Length = 226178 BitCount = 121 ID = 1112
   2.000087 1  598             Rx   d 8 00 00 12 34 5A DE 07 4F  Length = 220186 BitCount = 118 ID = 1432
   2.000311 1  158             Rx   d 8 AA AA AA AA AA AA AA AA  Length = 208218 BitCount = 112 ID = 344
   2.003921 1  360             Rx   d 8 0D 90 00 00 80 00 00 00  Length = 234171 BitCount = 125 ID = 864
   2.004169 1  3E0             Rx   d 8 0D CA 00 00 00 00 00 00  Length = 229941 BitCount = 123 ID = 992
   2.004407 1  420             Rx   d 8 65 CC AE 88 00 00 00 00  Length = 221953 BitCount = 119 ID = 1056
   2.020053 1  3D8             Rx   d 8 0D CA 27 10 00 58 F9 00  Length = 222183 BitCount = 119 ID = 984
   2.030202 1  558             Rx   d 8 03 12 00 04 00 59 05 07  Length = 224182 BitCount = 120 ID = 1368
   2.030440 1  4D8             Rx   d 8 0D 90 00 00 00 D2 03 08  Length = 222182 BitCount = 119 ID = 1240
   2.035869 CAN 1 Status:chip status error active
   2.035869 CAN 2 Status:chip status error active
   2.050162 1  358             Rx   d 8 0F BE 0A 22 00 FA 00 FA  Length = 224198 BitCount = 120 ID = 856
   2.059972 1  518             Rx   d 8 FF DC FF D2 FF FF FF FF  Length = 230174 BitCount = 123 ID = 1304
   2.070326 1  5D8             Rx   d 8 00 42 59 44 00 00 00 00  Length = 226179 BitCount = 121 ID = 1496
   2.090107 1  618             Rx   d 8 00 42 61 74 74 65 72 79  Length = 212194 BitCount = 114 ID = 1560
   2.090341 1  618             Rx   d 8 01 2D 42 6F 78 20 48 39  Length = 218190 BitCount = 117 ID = 1560
   2.090585 1  618             Rx   d 8 02 2E 30 00 00 00 00 00  Length = 228178 BitCount = 122 ID = 1560
   2.090827 1  458             Rx   d 8 00 00 12 34 00 00 56 78  Length = 226178 BitCount = 121 ID = 1112
   2.099763 1  598             Rx   d 8 00 00 12 34 5A DE 07 4F  Length = 220202 BitCount = 118 ID = 1432
   2.099987 1  158             Rx   d 8 AA AA AA AA AA AA AA AA  Length = 208202 BitCount = 112 ID = 344
   2.103919 1  360             Rx   d 8 0D 90 00 00 80 00 00 00  Length = 233936 BitCount = 125 ID = 864
   2.104165 1  3E0             Rx   d 8 0D CA 00 00 00 00 00 00  Length = 230174 BitCount = 123 ID = 992
   2.104403 1  420             Rx   d 8 65 CC AE 88 00 00 00 00  Length = 222182 BitCount = 119 ID = 1056
   2.119988 1  3D8             Rx   d 8 0D D4 27 10 00 59 F9 00  Length = 218190 BitCount = 117 ID = 984
   2.130206 1  558             Rx   d 8 03 12 00 04 00 59 05 07  Length = 224198 BitCount = 120 ID = 1368
   2.130442 1  4D8             Rx   d 8 0D 91 00 00 00 D2 03 08  Length = 220186 BitCount = 118 ID = 1240
   2.150220 1  358             Rx   d 8 0F BE 0A 22 00 FA 00 FA  Length = 224182 BitCount = 120 ID = 856
   2.160022 1  518             Rx   d 8 FF DC FF D2 FF FF FF FF  Length = 230175 BitCount = 123 ID = 1304
   2.170180 1  5D8             Rx   d 8 00 42 59 44 00 00 00 00  Length = 226194 BitCount = 121 ID = 1496
   2.190141 1  458             Rx   d 8 00 00 12 34 00 00 56 78  Length = 226178 BitCount = 121 ID = 1112
   2.199825 1  598             Rx   d 8 00 00 12 34 5A DE 07 4F  Length = 220186 BitCount = 118 ID = 1432
   2.200049 1  158             Rx   d 8 AA AA AA AA AA AA AA AA  Length = 208202 BitCount = 112 ID = 344
   2.203873 1  360             Rx   d 8 0D 90 00 00 80 00 00 00  Length = 234186 BitCount = 125 ID = 864
   2.204125 1  3E0             Rx   d 8 0D D4 00 00 00 00 00 00  Length = 235936 BitCount = 126 ID = 992
   2.204363 1  420             Rx   d 8 65 CC AE 88 00 00 00 00  Length = 221952 BitCount = 119 ID = 1056
   2.210123 1  618             Rx   d 8 00 42 61 74 74 65 72 79  Length = 212210 BitCount = 114 ID = 1560
   2.210357 1  618             Rx   d 8 01 2D 42 6F 78 20 48 39  Length = 218206 BitCount = 117 ID = 1560
   2.210601 1  618             Rx   d 8 02 2E 30 00 00 00 00 00  Length = 228178 BitCount = 122 ID = 1560
   2.220051 1  3D8             Rx   d 8 0D D4 27 10 00 59 F9 00  Length = 218206 BitCount = 117 ID = 984
   2.230253 1  558             Rx   d 8 03 12 00 04 00 59 05 07  Length = 224182 BitCount = 120 ID = 1368
   2.230491 1  4D8             Rx   d 8 0D 90 00 00 00 D2 03 08  Length = 222182 BitCount = 119 ID = 1240
   2.250156 1  358             Rx   d 8 0F BE 0A 22 00 FA 00 FA  Length = 224198 BitCount = 120 ID = 856
   2.260000 1  518             Rx   d 8 FF DC FF D2 FF FF FF FF  Length = 230190 BitCount = 123 ID = 1304
   2.270124 1  5D8             Rx   d 8 00 42 59 44 00 00 00 00  Length = 226179 BitCount = 121 ID = 1496
   2.290110 1  458             Rx   d 8 00 00 12 34 00 00 56 78  Length = 226194 BitCount = 121 ID = 1112
   2.300136 1  598             Rx   d 8 00 00 12 34 5A DE 07 4F  Length = 220202 BitCount = 118 ID = 1432
   2.300360 1  158             Rx   d 8 AA AA AA AA AA AA AA AA  Length = 208203 BitCount = 112 ID = 344
   2.303876 1  360             Rx   d 8 0D 90 00 00 80 00 00 00  Length = 233952 BitCount = 125 ID = 864
   2.304129 1  3E0             Rx   d 8 0D D4 00 00 00 00 00 00  Length = 236170 BitCount = 126 ID = 992
   2.304367 1  420             Rx   d 8 65 CC AE 88 00 00 00 00  Length = 222182 BitCount = 119 ID = 1056
   2.320043 1  3D8             Rx   d 8 0D D4 27 10 00 59 F9 00  Length = 218190 BitCount = 117 ID = 984
   2.330277 1  558             Rx   d 8 03 12 00 04 00 59 05 07  Length = 224182 BitCount = 120 ID = 1368
   2.330505 1  618             Rx   d 8 00 42 61 74 74 65 72 79  Length = 212194 BitCount = 114 ID = 1560
   2.330739 1  618             Rx   d 8 01 2D 42 6F 78 20 48 39  Length = 218206 BitCount = 117 ID = 1560
   2.330983 1  618             Rx   d 8 02 2E 30 00 00 00 00 00  Length = 228178 BitCount = 122 ID = 1560
   2.331221 1  4D8             Rx   d 8 0D 90 00 00 00 D2 03 08  Length = 222182 BitCount = 119 ID = 1240
   2.350104 1  358             Rx   d 8 0F BE 0A 22 00 FA 00 FA  Length = 224182 BitCount = 120 ID = 856
   2.359840 1  518             Rx   d 8 FF DC FF D2 FF FF FF FF  Length = 230175 BitCount = 123 ID = 1304
   2.371248 1  5D8             Rx   d 8 00 42 59 44 00 00 00 00  Length = 226178 BitCount = 121 ID = 1496
   2.390184 1  458             Rx   d 8 00 00 12 34 00 00 56 78  Length = 226179 BitCount = 121 ID = 1112
   2.399849 1  598             Rx   d 8 00 00 12 34 5A DE 07 4F  Length = 220186 BitCount = 118 ID = 1432
   2.400073 1  158             Rx   d 8 AA AA AA AA AA AA AA AA  Length = 208202 BitCount = 112 ID = 344
   2.403949 1  360             Rx   d 8 0D 90 00 00 80 00 00 00  Length = 234186 BitCount = 125 ID = 864
   2.404201 1  3E0             Rx   d 8 0D D4 00 00 00 00 00 00  Length = 236186 BitCount = 126 ID = 992
   2.404439 1  420             Rx   d 8 65 CC AE 88 00 00 00 00  Length = 222183 BitCount = 119 ID = 1056
   2.419969 1  3D8             Rx   d 8 0D D4 27 10 00 59 F9 00  Length = 218190 BitCount = 117 ID = 984
   2.430123 1  558             Rx   d 8 03 12 00 04 00 59 05 07  Length = 224198 BitCount = 120 ID = 1368
   2.430361 1  4D8             Rx   d 8 0D 90 00 00 00 D2 03 08  Length = 222182 BitCount = 119 ID = 1240
   2.450076 1  618             Rx   d 8 00 42 61 74 74 65 72 79  Length = 212194 BitCount = 114 ID = 1560
   2.450310 1  618             Rx   d 8 01 2D 42 6F 78 20 48 39  Length = 218190 BitCount = 117 ID = 1560
   2.450554 1  618             Rx   d 8 02 2E 30 00 00 00 00 00  Length = 228178 BitCount = 122 ID = 1560
   2.450794 1  358             Rx   d 8 0F BE 0A 22 00 FA 00 FA  Length = 224198 BitCount = 120 ID = 856
   2.459750 1  518             Rx   d 8 FF DC FF D2 FF FF FF FF  Length = 230174 BitCount = 123 ID = 1304
   2.470438 1  5D8             Rx   d 8 00 42 59 44 00 00 00 00  Length = 226178 BitCount = 121 ID = 1496
   2.490118 1  458             Rx   d 8 00 00 12 34 00 00 56 78  Length = 226178 BitCount = 121 ID = 1112
   2.498764 1  360             Rx   d 8 0D 90 00 00 80 00 00 00  Length = 234170 BitCount = 125 ID = 864
   2.499017 1  3E0             Rx   d 8 0D D4 00 00 00 00 00 00  Length = 236170 BitCount = 126 ID = 992
   2.499254 1  420             Rx   d 8 65 CC AE 88 00 00 00 00  Length = 221953 BitCount = 119 ID = 1056
   2.500153 1  598             Rx   d 8 00 00 12 34 5A DE 07 4F  Length = 220187 BitCount = 118 ID = 1432
   2.500377 1  158             Rx   d 8 AA AA AA AA AA AA AA AA  Length = 208203 BitCount = 112 ID = 344
   2.520031 1  3D8             Rx   d 8 0D D4 27 10 00 59 F9 00  Length = 218206 BitCount = 117 ID = 984
   2.530157 1  558             Rx   d 8 03 12 00 04 00 59 05 07  Length = 224183 BitCount = 120 ID = 1368
   2.530395 1  4D8             Rx   d 8 0D 90 00 00 00 D2 03 08  Length = 222183 BitCount = 119 ID = 1240
   2.550307 1  358             Rx   d 8 0F BE 0A 22 00 FA 00 FA  Length = 224198 BitCount = 120 ID = 856
   2.560078 1  518             Rx   d 8 FF DC FF D2 FF FF FF FF  Length = 230174 BitCount = 123 ID = 1304
   2.570146 1  5D8             Rx   d 8 00 42 59 44 00 00 00 00  Length = 226178 BitCount = 121 ID = 1496
   2.570374 1  618             Rx   d 8 00 42 61 74 74 65 72 79  Length = 212194 BitCount = 114 ID = 1560
   2.570608 1  618             Rx   d 8 01 2D 42 6F 78 20 48 39  Length = 218190 BitCount = 117 ID = 1560
   2.570852 1  618             Rx   d 8 02 2E 30 00 00 00 00 00  Length = 228194 BitCount = 122 ID = 1560
   2.590140 1  458             Rx   d 8 00 00 12 34 00 00 56 78  Length = 226194 BitCount = 121 ID = 1112
   2.598988 1  360             Rx   d 8 0D 90 00 00 80 00 00 00  Length = 234170 BitCount = 125 ID = 864
   2.599240 1  3E0             Rx   d 8 0D D4 00 00 00 00 00 00  Length = 235936 BitCount = 126 ID = 992
   2.599476 1  420             Rx   d 8 65 CC AE 89 00 00 00 00  Length = 220186 BitCount = 118 ID = 1056
   2.600231 1  598             Rx   d 8 00 00 12 34 5A DE 07 4F  Length = 220187 BitCount = 118 ID = 1432
   2.600455 1  158             Rx   d 8 AA AA AA AA AA AA AA AA  Length = 208203 BitCount = 112 ID = 344
   2.619725 1  3D8             Rx   d 8 0D D4 27 10 00 59 F9 00  Length = 218190 BitCount = 117 ID = 984
   2.631999 1  558             Rx   d 8 03 12 00 04 00 59 05 07  Length = 224182 BitCount = 120 ID = 1368
   2.632237 1  4D8             Rx   d 8 0D 90 00 00 00 D2 03 08  Length = 222182 BitCount = 119 ID = 1240
   2.650223 1  358             Rx   d 8 0F BE 0A 22 00 FA 00 FA  Length = 224182 BitCount = 120 ID = 856
   2.660008 1  518             Rx   d 8 FF DC FF D2 FF FF FF FF  Length = 230174 BitCount = 123 ID = 1304
   2.670124 1  5D8             Rx   d 8 00 42 59 44 00 00 00 00  Length = 226178 BitCount = 121 ID = 1496
   2.690076 1  618             Rx   d 8 00 42 61 74 74 65 72 79  Length = 212194 BitCount = 114 ID = 1560
   2.690310 1  618             Rx   d 8 01 2D 42 6F 78 20 48 39  Length = 218190 BitCount = 117 ID = 1560
   2.690554 1  618             Rx   d 8 02 2E 30 00 00 00 00 00  Length = 228178 BitCount = 122 ID = 1560
   2.690796 1  458             Rx   d 8 00 00 12 34 00 00 56 78  Length = 226178 BitCount = 121 ID = 1112
   2.698954 1  360             Rx   d 8 0D 90 00 00 80 00 00 00  Length = 234171 BitCount = 125 ID = 864
   2.699206 1  3E0             Rx   d 8 0D D4 00 00 00 00 00 00  Length = 236170 BitCount = 126 ID = 992
   2.699442 1  420             Rx   d 8 65 CC AE 89 00 00 00 00  Length = 219952 BitCount = 118 ID = 1056
   2.700130 1  598             Rx   d 8 00 00 12 34 5A DE 07 4F  Length = 220186 BitCount = 118 ID = 1432
   2.700354 1  158             Rx   d 8 AA AA AA AA AA AA AA AA  Length = 208202 BitCount = 112 ID = 344
   2.720135 1  3D8             Rx   d 8 0D D4 27 10 00 59 F9 00  Length = 218206 BitCount = 117 ID = 984
   2.730125 1  558             Rx   d 8 03 12 00 04 00 59 05 07  Length = 224183 BitCount = 120 ID = 1368
   2.730363 1  4D8             Rx   d 8 0D 90 00 00 00 D2 03 08  Length = 222183 BitCount = 119 ID = 1240
   2.750139 1  358             Rx   d 8 0F BE 0A 22 00 FA 00 FA  Length = 224183 BitCount = 120 ID = 856
   2.759959 1  518             Rx   d 8 FF DC FF D2 FF FF FF FF  Length = 230190 BitCount = 123 ID = 1304
   2.770091 1  5D8             Rx   d 8 00 42 59 44 00 00 00 00  Length = 226178 BitCount = 121 ID = 1496
   2.790314 1  458             Rx   d 8 00 00 12 34 00 00 56 78  Length = 226194 BitCount = 121 ID = 1112
   2.798906 1  360             Rx   d 8 0D 90 00 00 80 00 00 00  Length = 234170 BitCount = 125 ID = 864
   2.799158 1  3E0             Rx   d 8 0D D4 00 00 00 00 00 00  Length = 235936 BitCount = 126 ID = 992
   2.799394 1  420             Rx   d 8 65 CC AE 89 00 00 00 00  Length = 220186 BitCount = 118 ID = 1056
   2.800252 1  598             Rx   d 8 00 00 12 34 5A DE 07 4F  Length = 220202 BitCount = 118 ID = 1432
   2.800476 1  158             Rx   d 8 AA AA AA AA AA AA AA AA  Length = 208218 BitCount = 112 ID = 344
   2.810148 1  618             Rx   d 8 00 42 61 74 74 65 72 79  Length = 212210 BitCount = 114 ID = 1560
   2.810382 1  618             Rx   d 8 01 2D 42 6F 78 20 48 39  Length = 218190 BitCount = 117 ID = 1560
   2.810626 1  618             Rx   d 8 02 2E 30 00 00 00 00 00  Length = 228178 BitCount = 122 ID = 1560
   2.819727 1  3D8             Rx   d 8 0D D4 27 10 00 59 F9 00  Length = 218191 BitCount = 117 ID = 984
   2.830125 1  558             Rx   d 8 03 12 00 04 00 59 05 07  Length = 224182 BitCount = 120 ID = 1368
   2.830363 1  4D8             Rx   d 8 0D 90 00 00 00 D2 03 08  Length = 222182 BitCount = 119 ID = 1240
   2.850093 1  358             Rx   d 8 0F BE 0A 22 00 FA 00 FA  Length = 224198 BitCount = 120 ID = 856
   2.860211 1  518             Rx   d 8 FF DC FF D2 FF FF FF FF  Length = 230174 BitCount = 123 ID = 1304
   2.870207 1  5D8             Rx   d 8 00 42 59 44 00 00 00 00  Length = 226178 BitCount = 121 ID = 1496
   2.890168 1  458             Rx   d 8 00 00 12 34 00 00 56 78  Length = 226178 BitCount = 121 ID = 1112
   2.898994 1  360             Rx   d 8 0D 90 00 00 80 00 00 00  Length = 234171 BitCount = 125 ID = 864
   2.899246 1  3E0             Rx   d 8 0D D4 00 00 00 00 00 00  Length = 236171 BitCount = 126 ID = 992
   2.899482 1  420             Rx   d 8 65 CC AE 89 00 00 00 00  Length = 219953 BitCount = 118 ID = 1056
   2.900244 1  598             Rx   d 8 00 00 12 34 5A DE 07 4F  Length = 220186 BitCount = 118 ID = 1432
   2.900468 1  158             Rx   d 8 AA AA AA AA AA AA AA AA  Length = 208203 BitCount = 112 ID = 344
   2.919712 1  3D8             Rx   d 8 0D D4 27 10 00 59 F9 00  Length = 218190 BitCount = 117 ID = 984
   2.930098 1  558             Rx   d 8 03 12 00 04 00 59 05 07  Length = 224198 BitCount = 120 ID = 1368
   2.930326 1  618             Rx   d 8 00 42 61 74 74 65 72 79  Length = 212210 BitCount = 114 ID = 1560
   2.930560 1  618             Rx   d 8 01 2D 42 6F 78 20 48 39  Length = 218190 BitCount = 117 ID = 1560
   2.930804 1  618             Rx   d 8 02 2E 30 00 00 00 00 00  Length = 228178 BitCount = 122 ID = 1560
   2.931042 1  4D8             Rx   d 8 0D 90 00 00 00 D2 03 08  Length = 222183 BitCount = 119 ID = 1240
   2.950105 1  358             Rx   d 8 0F BE 0A 22 00 FA 00 FA  Length = 224183 BitCount = 120 ID = 856
   2.959829 1  518             Rx   d 8 FF DC FF D2 FF FF FF FF  Length = 230174 BitCount = 123 ID = 1304
   2.970073 1  5D8             Rx   d 8 00 42 59 44 00 00 00 00  Length = 226194 BitCount = 121 ID = 1496
   2.990173 1  458             Rx   d 8 00 00 12 34 00 00 56 78  Length = 226178 BitCount = 121 ID = 1112
   2.998979 1  360             Rx   d 8 0D 90 00 00 80 00 00 00  Length = 234170 BitCount = 125 ID = 864
   2.999232 1  3E0             Rx   d 8 0D D4 00 00 00 00 00 00  Length = 236170 BitCount = 126 ID = 992
   2.999467 1  420             Rx   d 8 65 CC AE 89 00 00 00 00  Length = 219952 BitCount = 118 ID = 1056
   3.000248 1  598             Rx   d 8 00 00 12 34 5A DE 07 4F  Length = 220202 BitCount = 118 ID = 1432
   3.000472 1  158             Rx   d 8 AA AA AA AA AA AA AA AA  Length = 208218 BitCount = 112 ID = 344
   3.019718 1  3D8             Rx   d 8 0D D4 27 10 00 59 F9 00  Length = 218190 BitCount = 117 ID = 984
   3.030088 1  558             Rx   d 8 03 12 00 04 00 59 05 07  Length = 224183 BitCount = 120 ID = 1368
   3.030326 1  4D8             Rx   d 8 0D 90 00 00 00 D2 03 08  Length = 222183 BitCount = 119 ID = 1240
   3.035870 CAN 1 Status:chip status error active
   3.035870 CAN 2 Status:chip status error active
   3.050254 1  618             Rx   d 8 00 42 61 74 74 65 72 79  Length = 212210 BitCount = 114 ID = 1560
   3.050488 1  618             Rx   d 8 01 2D 42 6F 78 20 48 39  Length = 218190 BitCount = 117 ID = 1560
   3.050732 1  618             Rx   d 8 02 2E 30 00 00 00 00 00  Length = 228178 BitCount = 122 ID = 1560
   3.050972 1  358             Rx   d 8 0F BE 0A 22 00 FA 00 FA  Length = 224182 BitCount = 120 ID = 856
   3.060039 1  518             Rx   d 8 FF DC FF D2 FF FF FF FF  Length = 230174 BitCount = 123 ID = 1304
   3.070159 1  5D8             Rx   d 8 00 42 59 44 00 00 00 00  Length = 226178 BitCount = 121 ID = 1496
   3.090175 1  458             Rx   d 8 00 00 12 34 00 00 56 78  Length = 226194 BitCount = 121 ID = 1112
   3.098945 1  360             Rx   d 8 0D 90 00 00 80 00 00 00  Length = 234170 BitCount = 125 ID = 864
   3.099197 1  3E0             Rx   d 8 0D D4 00 00 00 00 00 00  Length = 236170 BitCount = 126 ID = 992
   3.099433 1  420             Rx   d 8 65 CC AE 89 00 00 00 00  Length = 220186 BitCount = 118 ID = 1056
   3.100216 1  598             Rx   d 8 00 00 12 34 5A DE 07 4F  Length = 220187 BitCount = 118 ID = 1432
   3.100440 1  158             Rx   d 8 AA AA AA AA AA AA AA AA  Length = 208203 BitCount = 112 ID = 344
   3.120018 1  3D8             Rx   d 8 0D D4 27 10 00 59 F9 00  Length = 218191 BitCount = 117 ID = 984
   3.130132 1  558             Rx   d 8 03 12 00 04 00 59 05 07  Length = 224182 BitCount = 120 ID = 1368
   3.130368 1  4D8             Rx   d 8 0D 91 00 00 00 D2 03 08  Length = 220186 BitCount = 118 ID = 1240
   3.150124 1  358             Rx   d 8 0F BE 0A 22 00 FA 00 FA  Length = 224182 BitCount = 120 ID = 856
   3.159947 1  518             Rx   d 8 FF DC FF D2 FF FF FF FF  Length = 230174 BitCount = 123 ID = 1304
   3.170123 1  5D8             Rx   d 8 00 42 59 44 00 00 00 00  Length = 226178 BitCount = 121 ID = 1496
   3.170351 1  618             Rx   d 8 00 42 61 74 74 65 72 79  Length = 212210 BitCount = 114 ID = 1560
   3.170585 1  618             Rx   d 8 01 2D 42 6F 78 20 48 39  Length = 218206 BitCount = 117 ID = 1560
   3.170829 1  618             Rx   d 8 02 2E 30 00 00 00 00 00  Length = 228178 BitCount = 122 ID = 1560
   3.190167 1  458             Rx   d 8 00 00 12 34 00 00 56 78  Length = 226178 BitCount = 121 ID = 1112
   3.198939 1  360             Rx   d 8 0D 90 00 00 80 00 00 00  Length = 234170 BitCount = 125 ID = 864
   3.199191 1  3E0             Rx   d 8 0D D4 00 00 00 00 00 00  Length = 236170 BitCount = 126 ID = 992
   3.199427 1  420             Rx   d 8 65 CC AE 89 00 00 00 00  Length = 219952 BitCount = 118 ID = 1056
   3.200245 1  598             Rx   d 8 00 00 12 34 5A DE 07 4F  Length = 220186 BitCount = 118 ID = 1432
   3.200469 1  158             Rx   d 8 AA AA AA AA AA AA AA AA  Length = 208202 BitCount = 112 ID = 344
   3.219712 1  3D8             Rx   d 8 0D D4 27 10 00 59 F9 00  Length = 218191 BitCount = 117 ID = 984
