   0.006731 CAN 1 Status:chip status error active
   0.006731 CAN 2 Status:chip status error active
   1.006731 CAN 1 Status:chip status error active
   1.006731 CAN 2 Status:chip status error active
   2.006731 CAN 1 Status:chip status error active
   2.006731 CAN 2 Status:chip status error active
   2.388657 1  560             Rx   d 8 02 11 09 04 01 5B 00 00  Length = 221952 BitCount = 119 ID = 1376
   2.388899 1  5E0             Rx   d 8 00 53 4D 41 00 00 00 00  Length = 226179 BitCount = 121 ID = 1504
   2.389133 1  561             Rx   d 8 02 11 09 04 01 5B 00 00  Length = 218191 BitCount = 117 ID = 1377
   2.389373 1  5E1             Rx   d 8 00 53 4D 41 00 00 00 00  Length = 223949 BitCount = 120 ID = 1505
   2.389608 1  562             Rx   d 8 02 11 09 04 01 5B 00 00  Length = 218191 BitCount = 117 ID = 1378
   2.389854 1  5E2             Rx   d 8 00 53 4D 41 00 00 00 00  Length = 224198 BitCount = 120 ID = 1506
   2.390110 1  563             Rx   d 8 02 11 09 04 01 5B 00 00  Length = 218190 BitCount = 117 ID = 1379
   2.390360 1  5E3             Rx   d 8 00 53 4D 41 00 00 00 00  Length = 223948 BitCount = 120 ID = 1507
   2.390600 1  564             Rx   d 8 02 11 09 04 01 5B 00 00  Length = 219952 BitCount = 118 ID = 1380
   2.390858 1  5E4             Rx   d 8 00 53 4D 41 00 00 00 00  Length = 227944 BitCount = 122 ID = 1508
   2.391100 1  565             Rx   d 8 02 11 09 04 01 5B 00 00  Length = 219952 BitCount = 118 ID = 1381
   2.391364 1  5E5             Rx   d 8 00 53 4D 41 00 00 00 00  Length = 228178 BitCount = 122 ID = 1509
   2.391598 1  566             Rx   d 8 02 11 09 04 01 5B 00 00  Length = 218190 BitCount = 117 ID = 1382
   2.391856 1  5E6             Rx   d 8 00 53 4D 41 00 00 00 00  Length = 226194 BitCount = 121 ID = 1510
   2.392102 1  567             Rx   d 8 02 11 09 04 01 5B 00 00  Length = 222198 BitCount = 119 ID = 1383
   2.392361 1  5E7             Rx   d 8 00 53 4D 41 00 00 00 00  Length = 224183 BitCount = 120 ID = 1511
   3.006731 CAN 1 Status:chip status error active
   3.006731 CAN 2 Status:chip status error active
   4.006732 CAN 1 Status:chip status error active
   4.006732 CAN 2 Status:chip status error active
   5.006732 CAN 1 Status:chip status error active
   5.006732 CAN 2 Status:chip status error active
   6.006732 CAN 1 Status:chip status error active
   6.006732 CAN 2 Status:chip status error active
   7.006733 CAN 1 Status:chip status error active
   7.006733 CAN 2 Status:chip status error active
   7.388557 1  560             Rx   d 8 02 11 09 04 01 5B 00 00  Length = 222182 BitCount = 119 ID = 1376
   7.388809 1  5E0             Rx   d 8 00 53 4D 41 00 00 00 00  Length = 226178 BitCount = 121 ID = 1504
   7.389051 1  561             Rx   d 8 02 11 09 04 01 5B 00 00  Length = 217956 BitCount = 117 ID = 1377
   7.389307 1  5E1             Rx   d 8 00 53 4D 41 00 00 00 00  Length = 223964 BitCount = 120 ID = 1505
   7.389552 1  562             Rx   d 8 02 11 09 04 01 5B 00 00  Length = 218191 BitCount = 117 ID = 1378
   7.389808 1  5E2             Rx   d 8 00 53 4D 41 00 00 00 00  Length = 224183 BitCount = 120 ID = 1506
   7.390052 1  563             Rx   d 8 02 11 09 04 01 5B 00 00  Length = 217957 BitCount = 117 ID = 1379
   7.390306 1  5E3             Rx   d 8 00 53 4D 41 00 00 00 00  Length = 224183 BitCount = 120 ID = 1507
   7.390554 1  564             Rx   d 8 02 11 09 04 01 5B 00 00  Length = 220186 BitCount = 118 ID = 1380
   7.390810 1  5E4             Rx   d 8 00 53 4D 41 00 00 00 00  Length = 228178 BitCount = 122 ID = 1508
   7.391052 1  565             Rx   d 8 02 11 09 04 01 5B 00 00  Length = 219952 BitCount = 118 ID = 1381
   7.391310 1  5E5             Rx   d 8 00 53 4D 41 00 00 00 00  Length = 227960 BitCount = 122 ID = 1509
   7.391550 1  566             Rx   d 8 02 11 09 04 01 5B 00 00  Length = 217972 BitCount = 117 ID = 1382
   7.391809 1  5E6             Rx   d 8 00 53 4D 41 00 00 00 00  Length = 226178 BitCount = 121 ID = 1510
   7.392055 1  567             Rx   d 8 02 11 09 04 01 5B 00 00  Length = 222182 BitCount = 119 ID = 1383
   7.392307 1  5E7             Rx   d 8 00 53 4D 41 00 00 00 00  Length = 223948 BitCount = 120 ID = 1511
   8.006733 CAN 1 Status:chip status error active
   8.006733 CAN 2 Status:chip status error active
   9.006733 CAN 1 Status:chip status error active
   9.006733 CAN 2 Status:chip status error active
  10.006734 CAN 1 Status:chip status error active
  10.006734 CAN 2 Status:chip status error active
  11.006734 CAN 1 Status:chip status error active
  11.006734 CAN 2 Status:chip status error active
  12.006734 CAN 1 Status:chip status error active
  12.006734 CAN 2 Status:chip status error active
  12.388523 1  560             Rx   d 8 02 11 09 04 01 5B 00 00  Length = 221952 BitCount = 119 ID = 1376
  12.388777 1  5E0             Rx   d 8 00 53 4D 41 00 00 00 00  Length = 226194 BitCount = 121 ID = 1504
  12.389011 1  561             Rx   d 8 02 11 09 04 01 5B 00 00  Length = 218206 BitCount = 117 ID = 1377
  12.389259 1  5E1             Rx   d 8 00 53 4D 41 00 00 00 00  Length = 224182 BitCount = 120 ID = 1505
  12.389503 1  562             Rx   d 8 02 11 09 04 01 5B 00 00  Length = 217956 BitCount = 117 ID = 1378
  12.389759 1  5E2             Rx   d 8 00 53 4D 41 00 00 00 00  Length = 223948 BitCount = 120 ID = 1506
  12.390011 1  563             Rx   d 8 02 11 09 04 01 5B 00 00  Length = 217957 BitCount = 117 ID = 1379
  12.390260 1  5E3             Rx   d 8 00 53 4D 41 00 00 00 00  Length = 224183 BitCount = 120 ID = 1507
  12.390506 1  564             Rx   d 8 02 11 09 04 01 5B 00 00  Length = 220187 BitCount = 118 ID = 1380
  12.390764 1  5E4             Rx   d 8 00 53 4D 41 00 00 00 00  Length = 227945 BitCount = 122 ID = 1508
  12.391012 1  565             Rx   d 8 02 11 09 04 01 5B 00 00  Length = 220202 BitCount = 118 ID = 1381
  12.391264 1  5E5             Rx   d 8 00 53 4D 41 00 00 00 00  Length = 228178 BitCount = 122 ID = 1509
  12.391502 1  566             Rx   d 8 02 11 09 04 01 5B 00 00  Length = 218190 BitCount = 117 ID = 1382
  12.391760 1  5E6             Rx   d 8 00 53 4D 41 00 00 00 00  Length = 225944 BitCount = 121 ID = 1510
  12.392014 1  567             Rx   d 8 02 11 09 04 01 5B 00 00  Length = 221952 BitCount = 119 ID = 1383
  12.392258 1  5E7             Rx   d 8 00 53 4D 41 00 00 00 00  Length = 223948 BitCount = 120 ID = 1511
  13.006735 CAN 1 Status:chip status error active
  13.006735 CAN 2 Status:chip status error active
  14.006735 CAN 1 Status:chip status error active
  14.006735 CAN 2 Status:chip status error active
  15.006735 CAN 1 Status:chip status error active
  15.006735 CAN 2 Status:chip status error active
  16.006736 CAN 1 Status:chip status error active
  16.006736 CAN 2 Status:chip status error active
  17.006736 CAN 1 Status:chip status error active
  17.006736 CAN 2 Status:chip status error active
  17.388496 1  560             Rx   d 8 02 11 09 04 01 5B 00 00  Length = 222182 BitCount = 119 ID = 1376
  17.388738 1  5E0             Rx   d 8 00 53 4D 41 00 00 00 00  Length = 225944 BitCount = 121 ID = 1504
  17.388972 1  561             Rx   d 8 02 11 09 04 01 5B 00 00  Length = 217956 BitCount = 117 ID = 1377
  17.389212 1  5E1             Rx   d 8 00 53 4D 41 00 00 00 00  Length = 223948 BitCount = 120 ID = 1505
  17.389456 1  562             Rx   d 8 02 11 09 04 01 5B 00 00  Length = 217956 BitCount = 117 ID = 1378
  17.389712 1  5E2             Rx   d 8 00 53 4D 41 00 00 00 00  Length = 223948 BitCount = 120 ID = 1506
  17.389957 1  563             Rx   d 8 02 11 09 04 01 5B 00 00  Length = 218206 BitCount = 117 ID = 1379
  17.390213 1  5E3             Rx   d 8 00 53 4D 41 00 00 00 00  Length = 224198 BitCount = 120 ID = 1507
  17.390459 1  564             Rx   d 8 02 11 09 04 01 5B 00 00  Length = 219953 BitCount = 118 ID = 1380
  17.390715 1  5E4             Rx   d 8 00 53 4D 41 00 00 00 00  Length = 228179 BitCount = 122 ID = 1508
  17.390957 1  565             Rx   d 8 02 11 09 04 01 5B 00 00  Length = 220187 BitCount = 118 ID = 1381
  17.391215 1  5E5             Rx   d 8 00 53 4D 41 00 00 00 00  Length = 228179 BitCount = 122 ID = 1509
  17.391455 1  566             Rx   d 8 02 11 09 04 01 5B 00 00  Length = 217956 BitCount = 117 ID = 1382
  17.391713 1  5E6             Rx   d 8 00 53 4D 41 00 00 00 00  Length = 225944 BitCount = 121 ID = 1510
  17.391959 1  567             Rx   d 8 02 11 09 04 01 5B 00 00  Length = 221952 BitCount = 119 ID = 1383
  17.392211 1  5E7             Rx   d 8 00 53 4D 41 00 00 00 00  Length = 224198 BitCount = 120 ID = 1511
  18.006736 CAN 1 Status:chip status error active
  18.006736 CAN 2 Status:chip status error active
  19.006736 CAN 1 Status:chip status error active
  19.006736 CAN 2 Status:chip status error active
  20.006737 CAN 1 Status:chip status error active
  20.006737 CAN 2 Status:chip status error active
  21.006737 CAN 1 Status:chip status error active
  21.006737 CAN 2 Status:chip status error active
  22.006737 CAN 1 Status:chip status error active
  22.006737 CAN 2 Status:chip status error active
  23.006738 CAN 1 Status:chip status error active
  23.006738 CAN 2 Status:chip status error active
  24.006738 CAN 1 Status:chip status error active
  24.006738 CAN 2 Status:chip status error active
  25.006738 CAN 1 Status:chip status error active
  25.006738 CAN 2 Status:chip status error active
  26.006739 CAN 1 Status:chip status error active
  26.006739 CAN 2 Status:chip status error active
  27.006739 CAN 1 Status:chip status error active
  27.006739 CAN 2 Status:chip status error active
  28.006739 CAN 1 Status:chip status error active
  28.006739 CAN 2 Status:chip status error active
  29.006740 CAN 1 Status:chip status error active
  29.006740 CAN 2 Status:chip status error active
  30.006740 CAN 1 Status:chip status error active
  30.006740 CAN 2 Status:chip status error active
  31.006740 CAN 1 Status:chip status error active
  31.006740 CAN 2 Status:chip status error active
  32.006741 CAN 1 Status:chip status error active
  32.006741 CAN 2 Status:chip status error active
  33.006741 CAN 1 Status:chip status error active
  33.006741 CAN 2 Status:chip status error active
  33.394396 1  5D8             Rx   d 8 00 42 59 44 00 00 00 00  Length = 226178 BitCount = 121 ID = 1496
  33.394640 1  358             Rx   d 8 0F BE 0A 22 00 00 00 00  Length = 228178 BitCount = 122 ID = 856
  33.394874 1  3D8             Rx   d 8 0D DE 27 10 00 59 F9 00  Length = 218190 BitCount = 117 ID = 984
  33.395116 1  458             Rx   d 8 00 00 12 34 00 00 56 78  Length = 226194 BitCount = 121 ID = 1112
  33.395360 1  518             Rx   d 8 FF D2 FF D2 FF FF FF FF  Length = 228194 BitCount = 122 ID = 1304
  33.395600 1  4D8             Rx   d 8 0D 90 00 00 00 D2 02 08  Length = 224183 BitCount = 120 ID = 1240
  33.395824 1  158             Rx   d 8 AA AA AA AA AA AA AA AA  Length = 208203 BitCount = 112 ID = 344
  33.404056 1  618             Rx   d 8 00 42 61 74 74 65 72 79  Length = 212194 BitCount = 114 ID = 1560
  33.404290 1  618             Rx   d 8 01 2D 42 6F 78 20 48 39  Length = 218190 BitCount = 117 ID = 1560
  33.404534 1  618             Rx   d 8 02 2E 30 00 00 00 00 00  Length = 228178 BitCount = 122 ID = 1560
  33.404778 1  358             Rx   d 8 0F BE 0A 22 00 00 00 00  Length = 228178 BitCount = 122 ID = 856
  33.405012 1  3D8             Rx   d 8 0D DE 27 10 00 59 F9 00  Length = 218190 BitCount = 117 ID = 984
  33.405254 1  458             Rx   d 8 00 00 12 34 00 00 56 78  Length = 226178 BitCount = 121 ID = 1112
  33.405498 1  518             Rx   d 8 FF D2 FF D2 FF FF FF FF  Length = 228194 BitCount = 122 ID = 1304
  33.405738 1  4D8             Rx   d 8 0D 90 00 00 00 D2 02 08  Length = 224182 BitCount = 120 ID = 1240
  33.405962 1  158             Rx   d 8 AA AA AA AA AA AA AA AA  Length = 208202 BitCount = 112 ID = 344
  33.414457 1  458             Rx   d 8 00 00 12 34 00 00 56 78  Length = 226178 BitCount = 121 ID = 1112
  33.414701 1  518             Rx   d 8 FF D2 FF D2 FF FF FF FF  Length = 228178 BitCount = 122 ID = 1304
  33.414941 1  4D8             Rx   d 8 0D 90 00 00 00 D2 02 08  Length = 224182 BitCount = 120 ID = 1240
  33.415165 1  158             Rx   d 8 AA AA AA AA AA AA AA AA  Length = 208202 BitCount = 112 ID = 344
  33.424049 1  598             Rx   d 8 00 00 12 34 5A DE 07 4F  Length = 220186 BitCount = 118 ID = 1432
  33.424273 1  158             Rx   d 8 AA AA AA AA AA AA AA AA  Length = 208218 BitCount = 112 ID = 344
  33.444251 1  3D8             Rx   d 8 0D DE 27 10 00 59 F9 00  Length = 218190 BitCount = 117 ID = 984
  33.454405 1  558             Rx   d 8 03 12 00 04 00 59 05 07  Length = 224183 BitCount = 120 ID = 1368
  33.454645 1  4D8             Rx   d 8 0D 90 00 00 00 D2 02 08  Length = 224183 BitCount = 120 ID = 1240
  33.474618 1  358             Rx   d 8 0F BE 0A 22 00 00 00 00  Length = 228178 BitCount = 122 ID = 856
  33.484448 1  518             Rx   d 8 FF D2 FF D2 FF FF FF FF  Length = 228179 BitCount = 122 ID = 1304
  33.494424 1  5D8             Rx   d 8 00 42 59 44 00 00 00 00  Length = 226194 BitCount = 121 ID = 1496
  33.514474 1  458             Rx   d 8 00 00 12 34 00 00 56 78  Length = 226178 BitCount = 121 ID = 1112
  33.524251 1  598             Rx   d 8 00 00 12 34 5A DE 07 4F  Length = 220186 BitCount = 118 ID = 1432
  33.524479 1  618             Rx   d 8 00 42 61 74 74 65 72 79  Length = 212194 BitCount = 114 ID = 1560
  33.524713 1  618             Rx   d 8 01 2D 42 6F 78 20 48 39  Length = 218190 BitCount = 117 ID = 1560
  33.524957 1  618             Rx   d 8 02 2E 30 00 00 00 00 00  Length = 228194 BitCount = 122 ID = 1560
  33.525181 1  158             Rx   d 8 AA AA AA AA AA AA AA AA  Length = 208203 BitCount = 112 ID = 344
  33.544271 1  3D8             Rx   d 8 0D DE 27 10 00 59 F9 00  Length = 218190 BitCount = 117 ID = 984
  33.554441 1  558             Rx   d 8 03 12 00 04 00 59 05 07  Length = 224182 BitCount = 120 ID = 1368
  33.554685 1  4D8             Rx   d 8 0D 8F 00 00 00 D2 02 08  Length = 228178 BitCount = 122 ID = 1240
  33.574457 1  358             Rx   d 8 0F BE 0A 22 00 00 00 00  Length = 228178 BitCount = 122 ID = 856
  33.584272 1  518             Rx   d 8 FF D2 FF D2 FF FF FF FF  Length = 228179 BitCount = 122 ID = 1304
  33.594476 1  5D8             Rx   d 8 00 42 59 44 00 00 00 00  Length = 226178 BitCount = 121 ID = 1496
  33.614660 1  458             Rx   d 8 00 00 12 34 00 00 56 78  Length = 226179 BitCount = 121 ID = 1112
  33.624418 1  598             Rx   d 8 00 00 12 34 5A DE 07 4F  Length = 220202 BitCount = 118 ID = 1432
  33.624642 1  158             Rx   d 8 AA AA AA AA AA AA AA AA  Length = 208202 BitCount = 112 ID = 344
  33.644127 1  618             Rx   d 8 00 42 61 74 74 65 72 79  Length = 212194 BitCount = 114 ID = 1560
  33.644361 1  618             Rx   d 8 01 2D 42 6F 78 20 48 39  Length = 218190 BitCount = 117 ID = 1560
  33.644605 1  618             Rx   d 8 02 2E 30 00 00 00 00 00  Length = 228194 BitCount = 122 ID = 1560
  33.644839 1  3D8             Rx   d 8 0D DE 27 10 00 59 F9 00  Length = 218190 BitCount = 117 ID = 984
  33.654429 1  558             Rx   d 8 03 12 00 04 00 59 05 07  Length = 224182 BitCount = 120 ID = 1368
  33.654673 1  4D8             Rx   d 8 0D 8F 00 00 00 D2 02 08  Length = 228194 BitCount = 122 ID = 1240
  33.674463 1  358             Rx   d 8 0F BE 0A 22 00 00 00 00  Length = 228178 BitCount = 122 ID = 856
  33.684261 1  518             Rx   d 8 FF D2 FF D2 FF FF FF FF  Length = 228178 BitCount = 122 ID = 1304
  33.694442 1  5D8             Rx   d 8 00 42 59 44 00 00 00 00  Length = 226194 BitCount = 121 ID = 1496
  33.714462 1  458             Rx   d 8 00 00 12 34 00 00 56 78  Length = 226194 BitCount = 121 ID = 1112
  33.724250 1  598             Rx   d 8 00 00 12 34 5A DE 07 4F  Length = 220186 BitCount = 118 ID = 1432
  33.724474 1  158             Rx   d 8 AA AA AA AA AA AA AA AA  Length = 208202 BitCount = 112 ID = 344
  33.744397 1  3D8             Rx   d 8 0D DE 27 10 00 59 F9 00  Length = 218191 BitCount = 117 ID = 984
  33.754491 1  558             Rx   d 8 03 12 00 04 00 59 05 07  Length = 224182 BitCount = 120 ID = 1368
  33.754735 1  4D8             Rx   d 8 0D 8F 00 00 00 D2 02 08  Length = 228179 BitCount = 122 ID = 1240
  33.764317 1  618             Rx   d 8 00 42 61 74 74 65 72 79  Length = 212195 BitCount = 114 ID = 1560
  33.764551 1  618             Rx   d 8 01 2D 42 6F 78 20 48 39  Length = 218191 BitCount = 117 ID = 1560
  33.764795 1  618             Rx   d 8 02 2E 30 00 00 00 00 00  Length = 228179 BitCount = 122 ID = 1560
  33.774513 1  358             Rx   d 8 0F BE 0A 22 00 00 00 00  Length = 228178 BitCount = 122 ID = 856
  33.784305 1  518             Rx   d 8 FF D2 FF D2 FF FF FF FF  Length = 228178 BitCount = 122 ID = 1304
  33.794484 1  5D8             Rx   d 8 00 42 59 44 00 00 00 00  Length = 226178 BitCount = 121 ID = 1496
  33.814526 1  458             Rx   d 8 00 00 12 34 00 00 56 78  Length = 226178 BitCount = 121 ID = 1112
  33.824320 1  598             Rx   d 8 00 00 12 34 5A DE 07 4F  Length = 220186 BitCount = 118 ID = 1432
  33.824544 1  158             Rx   d 8 AA AA AA AA AA AA AA AA  Length = 208202 BitCount = 112 ID = 344
  33.844296 1  3D8             Rx   d 8 0D DE 27 10 00 59 F9 00  Length = 218191 BitCount = 117 ID = 984
  33.854609 1  558             Rx   d 8 03 12 00 04 00 59 05 07  Length = 224198 BitCount = 120 ID = 1368
  33.854853 1  4D8             Rx   d 8 0D 8F 00 00 00 D2 02 08  Length = 228178 BitCount = 122 ID = 1240
  33.874467 1  358             Rx   d 8 0F BE 0A 22 00 00 00 00  Length = 228178 BitCount = 122 ID = 856
  33.884135 1  618             Rx   d 8 00 42 61 74 74 65 72 79  Length = 212194 BitCount = 114 ID = 1560
  33.884369 1  618             Rx   d 8 01 2D 42 6F 78 20 48 39  Length = 218190 BitCount = 117 ID = 1560
  33.884613 1  618             Rx   d 8 02 2E 30 00 00 00 00 00  Length = 228179 BitCount = 122 ID = 1560
  33.884857 1  518             Rx   d 8 FF D2 FF D2 FF FF FF FF  Length = 228179 BitCount = 122 ID = 1304
  33.894417 1  5D8             Rx   d 8 00 42 59 44 00 00 00 00  Length = 226179 BitCount = 121 ID = 1496
  33.914508 1  458             Rx   d 8 00 00 12 34 00 00 56 78  Length = 226179 BitCount = 121 ID = 1112
  33.924112 1  598             Rx   d 8 00 00 12 34 5A DE 07 4F  Length = 220186 BitCount = 118 ID = 1432
  33.924336 1  158             Rx   d 8 AA AA AA AA AA AA AA AA  Length = 208218 BitCount = 112 ID = 344
  33.944244 1  3D8             Rx   d 8 0D DE 27 10 00 59 F9 00  Length = 218190 BitCount = 117 ID = 984
  33.954428 1  558             Rx   d 8 03 12 00 04 00 59 05 07  Length = 224182 BitCount = 120 ID = 1368
  33.954672 1  4D8             Rx   d 8 0D 8F 00 00 00 D2 02 08  Length = 228178 BitCount = 122 ID = 1240
  33.974425 1  358             Rx   d 8 0F BE 0A 22 00 00 00 00  Length = 228178 BitCount = 122 ID = 856
  33.984267 1  518             Rx   d 8 FF D2 FF D2 FF FF FF FF  Length = 228194 BitCount = 122 ID = 1304
  33.994417 1  5D8             Rx   d 8 00 42 59 44 00 00 00 00  Length = 226194 BitCount = 121 ID = 1496
  34.004113 1  618             Rx   d 8 00 42 61 74 74 65 72 79  Length = 212194 BitCount = 114 ID = 1560
  34.004347 1  618             Rx   d 8 01 2D 42 6F 78 20 48 39  Length = 218190 BitCount = 117 ID = 1560
  34.004591 1  618             Rx   d 8 02 2E 30 00 00 00 00 00  Length = 228178 BitCount = 122 ID = 1560
  34.006741 CAN 1 Status:chip status error active
  34.006741 CAN 2 Status:chip status error active
  34.014488 1  458             Rx   d 8 00 00 12 34 00 00 56 78  Length = 226179 BitCount = 121 ID = 1112
  34.024124 1  598             Rx   d 8 00 00 12 34 5A DE 07 4F  Length = 220187 BitCount = 118 ID = 1432
  34.024348 1  158             Rx   d 8 AA AA AA AA AA AA AA AA  Length = 208203 BitCount = 112 ID = 344
  34.044274 1  3D8             Rx   d 8 0D DE 27 10 00 59 F9 00  Length = 218206 BitCount = 117 ID = 984
  34.055748 1  558             Rx   d 8 03 12 00 04 00 59 05 07  Length = 224183 BitCount = 120 ID = 1368
  34.055992 1  4D8             Rx   d 8 0D 8F 00 00 00 D2 02 08  Length = 228179 BitCount = 122 ID = 1240
  34.074467 1  358             Rx   d 8 0F BE 0A 22 00 00 00 00  Length = 228178 BitCount = 122 ID = 856
  34.084271 1  518             Rx   d 8 FF D2 FF D2 FF FF FF FF  Length = 228178 BitCount = 122 ID = 1304
  34.094423 1  5D8             Rx   d 8 00 42 59 44 00 00 00 00  Length = 226178 BitCount = 121 ID = 1496
  34.114465 1  458             Rx   d 8 00 00 12 34 00 00 56 78  Length = 226178 BitCount = 121 ID = 1112
  34.124138 1  598             Rx   d 8 00 00 12 34 5A DE 07 4F  Length = 220187 BitCount = 118 ID = 1432
  34.124366 1  618             Rx   d 8 00 42 61 74 74 65 72 79  Length = 212210 BitCount = 114 ID = 1560
  34.124600 1  618             Rx   d 8 01 2D 42 6F 78 20 48 39  Length = 218190 BitCount = 117 ID = 1560
  34.124844 1  618             Rx   d 8 02 2E 30 00 00 00 00 00  Length = 228178 BitCount = 122 ID = 1560
  34.125068 1  158             Rx   d 8 AA AA AA AA AA AA AA AA  Length = 208202 BitCount = 112 ID = 344
  34.144364 1  3D8             Rx   d 8 0D DE 27 10 00 59 F9 00  Length = 218191 BitCount = 117 ID = 984
  34.154480 1  558             Rx   d 8 03 12 00 04 00 59 05 07  Length = 224182 BitCount = 120 ID = 1368
  34.154724 1  4D8             Rx   d 8 0D 8F 00 00 00 D2 02 08  Length = 228178 BitCount = 122 ID = 1240
  34.174460 1  358             Rx   d 8 0F BE 0A 22 00 00 00 00  Length = 228179 BitCount = 122 ID = 856
  34.184277 1  518             Rx   d 8 FF D2 FF D2 FF FF FF FF  Length = 228194 BitCount = 122 ID = 1304
  34.194427 1  5D8             Rx   d 8 00 42 59 44 00 00 00 00  Length = 226178 BitCount = 121 ID = 1496
  34.214463 1  458             Rx   d 8 00 00 12 34 00 00 56 78  Length = 226178 BitCount = 121 ID = 1112
  34.224243 1  598             Rx   d 8 00 00 12 34 5A DE 07 4F  Length = 220186 BitCount = 118 ID = 1432
  34.224467 1  158             Rx   d 8 AA AA AA AA AA AA AA AA  Length = 208202 BitCount = 112 ID = 344
  34.244282 1  3D8             Rx   d 8 0D DE 27 10 00 59 F9 00  Length = 218206 BitCount = 117 ID = 984
  34.254590 1  558             Rx   d 8 03 12 00 04 00 59 05 07  Length = 224182 BitCount = 120 ID = 1368
  34.254818 1  618             Rx   d 8 00 42 61 74 74 65 72 79  Length = 212194 BitCount = 114 ID = 1560
  34.255052 1  618             Rx   d 8 01 2D 42 6F 78 20 48 39  Length = 218190 BitCount = 117 ID = 1560
  34.255296 1  618             Rx   d 8 02 2E 30 00 00 00 00 00  Length = 228178 BitCount = 122 ID = 1560
  34.255540 1  4D8             Rx   d 8 0D 8F 00 00 00 D2 02 08  Length = 228178 BitCount = 122 ID = 1240
  34.274490 1  358             Rx   d 8 0F BE 0A 22 00 00 00 00  Length = 228179 BitCount = 122 ID = 856
  34.284304 1  518             Rx   d 8 FF D2 FF D2 FF FF FF FF  Length = 228178 BitCount = 122 ID = 1304
  34.294445 1  5D8             Rx   d 8 00 42 59 44 00 00 00 00  Length = 226178 BitCount = 121 ID = 1496
  34.314447 1  458             Rx   d 8 00 00 12 34 00 00 56 78  Length = 226178 BitCount = 121 ID = 1112
  34.324267 1  598             Rx   d 8 00 00 12 34 5A DE 07 4F  Length = 220186 BitCount = 118 ID = 1432
  34.324491 1  158             Rx   d 8 AA AA AA AA AA AA AA AA  Length = 208203 BitCount = 112 ID = 344
  34.344264 1  3D8             Rx   d 8 0D DE 27 10 00 59 F9 00  Length = 218190 BitCount = 117 ID = 984
  34.354444 1  558             Rx   d 8 03 12 00 04 00 59 05 07  Length = 224182 BitCount = 120 ID = 1368
  34.354684 1  4D8             Rx   d 8 0D 90 00 00 00 D2 02 08  Length = 224182 BitCount = 120 ID = 1240
  34.374540 1  618             Rx   d 8 00 42 61 74 74 65 72 79  Length = 212194 BitCount = 114 ID = 1560
  34.374774 1  618             Rx   d 8 01 2D 42 6F 78 20 48 39  Length = 218190 BitCount = 117 ID = 1560
  34.375018 1  618             Rx   d 8 02 2E 30 00 00 00 00 00  Length = 228178 BitCount = 122 ID = 1560
  34.375262 1  358             Rx   d 8 0F BE 0A 22 00 00 00 00  Length = 228194 BitCount = 122 ID = 856
  34.384292 1  518             Rx   d 8 FF D2 FF D2 FF FF FF FF  Length = 228178 BitCount = 122 ID = 1304
  34.394462 1  5D8             Rx   d 8 00 42 59 44 00 00 00 00  Length = 226194 BitCount = 121 ID = 1496
  34.414445 1  458             Rx   d 8 00 00 12 34 00 00 56 78  Length = 226178 BitCount = 121 ID = 1112
  34.424133 1  598             Rx   d 8 00 00 12 34 5A DE 07 4F  Length = 220186 BitCount = 118 ID = 1432
  34.424357 1  158             Rx   d 8 AA AA AA AA AA AA AA AA  Length = 208203 BitCount = 112 ID = 344
  34.444259 1  3D8             Rx   d 8 0D DE 27 10 00 59 F9 00  Length = 218190 BitCount = 117 ID = 984
  34.454452 1  558             Rx   d 8 03 12 00 04 00 59 05 07  Length = 224198 BitCount = 120 ID = 1368
  34.454696 1  4D8             Rx   d 8 0D 8F 00 00 00 D2 02 08  Length = 228179 BitCount = 122 ID = 1240
  34.474466 1  358             Rx   d 8 0F BE 0A 22 00 00 00 00  Length = 228178 BitCount = 122 ID = 856
  34.484272 1  518             Rx   d 8 FF D2 FF D2 FF FF FF FF  Length = 228178 BitCount = 122 ID = 1304
  34.494414 1  5D8             Rx   d 8 00 42 59 44 00 00 00 00  Length = 226178 BitCount = 121 ID = 1496
  34.494642 1  618             Rx   d 8 00 42 61 74 74 65 72 79  Length = 212194 BitCount = 114 ID = 1560
  34.494876 1  618             Rx   d 8 01 2D 42 6F 78 20 48 39  Length = 218190 BitCount = 117 ID = 1560
  34.495120 1  618             Rx   d 8 02 2E 30 00 00 00 00 00  Length = 228178 BitCount = 122 ID = 1560
  34.514459 1  458             Rx   d 8 00 00 12 34 00 00 56 78  Length = 226178 BitCount = 121 ID = 1112
  34.524127 1  598             Rx   d 8 00 00 12 34 5A DE 07 4F  Length = 220186 BitCount = 118 ID = 1432
  34.524351 1  158             Rx   d 8 AA AA AA AA AA AA AA AA  Length = 208202 BitCount = 112 ID = 344
  34.544457 1  3D8             Rx   d 8 0D DE 27 10 00 59 F9 00  Length = 218190 BitCount = 117 ID = 984
  34.554481 1  558             Rx   d 8 03 12 00 04 00 59 05 07  Length = 224183 BitCount = 120 ID = 1368
  34.554725 1  4D8             Rx   d 8 0D 8F 00 00 00 D2 02 08  Length = 228194 BitCount = 122 ID = 1240
  34.574436 1  358             Rx   d 8 0F BE 0A 22 00 00 00 00  Length = 228178 BitCount = 122 ID = 856
  34.584248 1  518             Rx   d 8 FF D2 FF D2 FF FF FF FF  Length = 228179 BitCount = 122 ID = 1304
  34.594396 1  5D8             Rx   d 8 00 42 59 44 00 00 00 00  Length = 226194 BitCount = 121 ID = 1496
  34.614353 1  618             Rx   d 8 00 42 61 74 74 65 72 79  Length = 212194 BitCount = 114 ID = 1560
  34.614587 1  618             Rx   d 8 01 2D 42 6F 78 20 48 39  Length = 218190 BitCount = 117 ID = 1560
  34.614831 1  618             Rx   d 8 02 2E 30 00 00 00 00 00  Length = 228178 BitCount = 122 ID = 1560
  34.615073 1  458             Rx   d 8 00 00 12 34 00 00 56 78  Length = 226178 BitCount = 121 ID = 1112
  34.624027 1  598             Rx   d 8 00 00 12 34 5A DE 07 4F  Length = 220186 BitCount = 118 ID = 1432
  34.624251 1  158             Rx   d 8 AA AA AA AA AA AA AA AA  Length = 208202 BitCount = 112 ID = 344
  34.644371 1  3D8             Rx   d 8 0D DE 27 10 00 59 F9 00  Length = 218190 BitCount = 117 ID = 984
  34.654449 1  558             Rx   d 8 03 12 00 04 00 59 05 07  Length = 224182 BitCount = 120 ID = 1368
  34.654693 1  4D8             Rx   d 8 0D 8F 00 00 00 D2 02 08  Length = 228178 BitCount = 122 ID = 1240
  34.674444 1  358             Rx   d 8 0F BE 0A 22 00 00 00 00  Length = 228194 BitCount = 122 ID = 856
  34.684144 1  518             Rx   d 8 FF D2 FF D2 FF FF FF FF  Length = 228179 BitCount = 122 ID = 1304
  34.694380 1  5D8             Rx   d 8 00 42 59 44 00 00 00 00  Length = 226179 BitCount = 121 ID = 1496
  34.714382 1  458             Rx   d 8 00 00 12 34 00 00 56 78  Length = 226179 BitCount = 121 ID = 1112
  34.724133 1  598             Rx   d 8 00 00 12 34 5A DE 07 4F  Length = 220202 BitCount = 118 ID = 1432
  34.724357 1  158             Rx   d 8 AA AA AA AA AA AA AA AA  Length = 208202 BitCount = 112 ID = 344
  34.734369 1  618             Rx   d 8 00 42 61 74 74 65 72 79  Length = 212194 BitCount = 114 ID = 1560
  34.734603 1  618             Rx   d 8 01 2D 42 6F 78 20 48 39  Length = 218206 BitCount = 117 ID = 1560
  34.734847 1  618             Rx   d 8 02 2E 30 00 00 00 00 00  Length = 228179 BitCount = 122 ID = 1560
  34.744025 1  3D8             Rx   d 8 0D DE 27 10 00 59 F9 00  Length = 218190 BitCount = 117 ID = 984
  34.754379 1  558             Rx   d 8 03 12 00 04 00 59 05 07  Length = 224182 BitCount = 120 ID = 1368
  34.754623 1  4D8             Rx   d 8 0D 8F 00 00 00 D2 02 08  Length = 228178 BitCount = 122 ID = 1240
  34.774537 1  358             Rx   d 8 0F BE 0A 22 00 00 00 00  Length = 228178 BitCount = 122 ID = 856
  34.784520 1  518             Rx   d 8 FF D2 FF D2 FF FF FF FF  Length = 228178 BitCount = 122 ID = 1304
  34.788580 1  560             Rx   d 8 02 11 09 04 01 5B 00 00  Length = 221952 BitCount = 119 ID = 1376
  34.788822 1  5E0             Rx   d 8 00 53 4D 41 00 00 00 00  Length = 226178 BitCount = 121 ID = 1504
  34.794480 1  5D8             Rx   d 8 00 42 59 44 00 00 00 00  Length = 226194 BitCount = 121 ID = 1496
  34.814435 1  458             Rx   d 8 00 00 12 34 00 00 56 78  Length = 226178 BitCount = 121 ID = 1112
  34.824247 1  598             Rx   d 8 00 00 12 34 5A DE 07 4F  Length = 220186 BitCount = 118 ID = 1432
  34.824471 1  158             Rx   d 8 AA AA AA AA AA AA AA AA  Length = 208202 BitCount = 112 ID = 344
  34.844249 1  3D8             Rx   d 8 0D DE 27 10 00 59 F9 00  Length = 218206 BitCount = 117 ID = 984
  34.854409 1  558             Rx   d 8 03 12 00 04 00 59 05 07  Length = 224198 BitCount = 120 ID = 1368
  34.854637 1  618             Rx   d 8 00 42 61 74 74 65 72 79  Length = 212194 BitCount = 114 ID = 1560
  34.854871 1  618             Rx   d 8 01 2D 42 6F 78 20 48 39  Length = 218190 BitCount = 117 ID = 1560
  34.855115 1  618             Rx   d 8 02 2E 30 00 00 00 00 00  Length = 228178 BitCount = 122 ID = 1560
  34.855359 1  4D8             Rx   d 8 0D 8F 00 00 00 D2 02 08  Length = 228178 BitCount = 122 ID = 1240
  34.874394 1  358             Rx   d 8 0F BE 0A 22 00 00 00 00  Length = 228179 BitCount = 122 ID = 856
  34.884246 1  518             Rx   d 8 FF D2 FF D2 FF FF FF FF  Length = 228179 BitCount = 122 ID = 1304
  34.894424 1  5D8             Rx   d 8 00 42 59 44 00 00 00 00  Length = 226178 BitCount = 121 ID = 1496
  34.914388 1  458             Rx   d 8 00 00 12 34 00 00 56 78  Length = 226178 BitCount = 121 ID = 1112
  34.924241 1  598             Rx   d 8 00 00 12 34 5A DE 07 4F  Length = 220186 BitCount = 118 ID = 1432
  34.924465 1  158             Rx   d 8 AA AA AA AA AA AA AA AA  Length = 208203 BitCount = 112 ID = 344
  34.944239 1  3D8             Rx   d 8 0D DE 27 10 00 59 F9 00  Length = 218190 BitCount = 117 ID = 984
  34.954393 1  558             Rx   d 8 03 12 00 04 00 59 05 07  Length = 224182 BitCount = 120 ID = 1368
  34.954633 1  4D8             Rx   d 8 0D 90 00 00 00 D2 02 08  Length = 224182 BitCount = 120 ID = 1240
  34.974477 1  618             Rx   d 8 00 42 61 74 74 65 72 79  Length = 212194 BitCount = 114 ID = 1560
  34.974711 1  618             Rx   d 8 01 2D 42 6F 78 20 48 39  Length = 218190 BitCount = 117 ID = 1560
  34.974956 1  618             Rx   d 8 02 2E 30 00 00 00 00 00  Length = 228178 BitCount = 122 ID = 1560
  34.975200 1  358             Rx   d 8 0F BE 0A 22 00 00 00 00  Length = 228178 BitCount = 122 ID = 856
  34.984250 1  518             Rx   d 8 FF D2 FF D2 FF FF FF FF  Length = 228194 BitCount = 122 ID = 1304
  34.988608 1  360             Rx   d 8 00 03 00 00 80 00 00 00  Length = 233952 BitCount = 125 ID = 864
  34.988856 1  3E0             Rx   d 8 0D DE 00 00 00 00 00 00  Length = 232175 BitCount = 124 ID = 992
  34.989094 1  420             Rx   d 8 65 CC AD 8F 00 00 00 00  Length = 222183 BitCount = 119 ID = 1056
  34.994444 1  5D8             Rx   d 8 00 42 59 44 00 00 00 00  Length = 226178 BitCount = 121 ID = 1496
  35.006741 CAN 1 Status:chip status error active
  35.006741 CAN 2 Status:chip status error active
  35.014409 1  458             Rx   d 8 00 00 12 34 00 00 56 78  Length = 226178 BitCount = 121 ID = 1112
  35.024285 1  598             Rx   d 8 00 00 12 34 5A DE 07 4F  Length = 220186 BitCount = 118 ID = 1432
  35.024509 1  158             Rx   d 8 AA AA AA AA AA AA AA AA  Length = 208202 BitCount = 112 ID = 344
  35.044271 1  3D8             Rx   d 8 0D DE 27 10 00 59 F9 00  Length = 218191 BitCount = 117 ID = 984
  35.054419 1  558             Rx   d 8 03 12 00 04 00 59 05 07  Length = 224182 BitCount = 120 ID = 1368
  35.054663 1  4D8             Rx   d 8 0D 8F 00 00 00 D2 02 08  Length = 228194 BitCount = 122 ID = 1240
  35.074438 1  358             Rx   d 8 0F BE 0A 22 00 00 00 00  Length = 228179 BitCount = 122 ID = 856
  35.084298 1  518             Rx   d 8 FF D2 FF D2 FF FF FF FF  Length = 228178 BitCount = 122 ID = 1304
  35.088554 1  360             Rx   d 8 00 03 00 00 80 00 00 00  Length = 234170 BitCount = 125 ID = 864
  35.088802 1  3E0             Rx   d 8 0D DE 00 00 00 00 00 00  Length = 231940 BitCount = 124 ID = 992
  35.089040 1  420             Rx   d 8 65 CC AD 8F 00 00 00 00  Length = 221952 BitCount = 119 ID = 1056
  35.094484 1  5D8             Rx   d 8 00 42 59 44 00 00 00 00  Length = 226179 BitCount = 121 ID = 1496
  35.094712 1  618             Rx   d 8 00 42 61 74 74 65 72 79  Length = 212195 BitCount = 114 ID = 1560
  35.094946 1  618             Rx   d 8 01 2D 42 6F 78 20 48 39  Length = 218190 BitCount = 117 ID = 1560
  35.095190 1  618             Rx   d 8 02 2E 30 00 00 00 00 00  Length = 228178 BitCount = 122 ID = 1560
  35.114814 1  458             Rx   d 8 00 00 12 34 00 00 56 78  Length = 226179 BitCount = 121 ID = 1112
  35.124523 1  598             Rx   d 8 00 00 12 34 5A DE 07 4F  Length = 220186 BitCount = 118 ID = 1432
  35.124747 1  158             Rx   d 8 AA AA AA AA AA AA AA AA  Length = 208218 BitCount = 112 ID = 344
  35.144407 1  3D8             Rx   d 8 0D DE 27 10 00 59 F9 00  Length = 218190 BitCount = 117 ID = 984
  35.154483 1  558             Rx   d 8 03 12 00 04 00 59 05 07  Length = 224182 BitCount = 120 ID = 1368
  35.154727 1  4D8             Rx   d 8 0D 8F 00 00 00 D2 02 08  Length = 228178 BitCount = 122 ID = 1240
  35.174534 1  358             Rx   d 8 0F BE 0A 22 00 00 00 00  Length = 228194 BitCount = 122 ID = 856
  35.184034 1  518             Rx   d 8 FF D2 FF D2 FF FF FF FF  Length = 228178 BitCount = 122 ID = 1304
  35.189292 1  360             Rx   d 8 00 03 00 00 80 00 00 00  Length = 234186 BitCount = 125 ID = 864
  35.189540 1  3E0             Rx   d 8 0D DE 00 00 00 00 00 00  Length = 232174 BitCount = 124 ID = 992
  35.189778 1  420             Rx   d 8 65 CC AD 8F 00 00 00 00  Length = 222182 BitCount = 119 ID = 1056
  35.194492 1  5D8             Rx   d 8 00 42 59 44 00 00 00 00  Length = 226178 BitCount = 121 ID = 1496
  35.214497 1  618             Rx   d 8 00 42 61 74 74 65 72 79  Length = 212194 BitCount = 114 ID = 1560
  35.214731 1  618             Rx   d 8 01 2D 42 6F 78 20 48 39  Length = 218190 BitCount = 117 ID = 1560
  35.214975 1  618             Rx   d 8 02 2E 30 00 00 00 00 00  Length = 228178 BitCount = 122 ID = 1560
  35.215217 1  458             Rx   d 8 00 00 12 34 00 00 56 78  Length = 226178 BitCount = 121 ID = 1112
  35.224277 1  598             Rx   d 8 00 00 12 34 5A DE 07 4F  Length = 220202 BitCount = 118 ID = 1432
  35.224501 1  158             Rx   d 8 AA AA AA AA AA AA AA AA  Length = 208202 BitCount = 112 ID = 344
  35.244363 1  3D8             Rx   d 8 0D DE 27 10 00 59 F9 00  Length = 218190 BitCount = 117 ID = 984
  35.254479 1  558             Rx   d 8 03 12 00 04 00 59 05 07  Length = 224183 BitCount = 120 ID = 1368
  35.254723 1  4D8             Rx   d 8 0D 8F 00 00 00 D2 02 08  Length = 228194 BitCount = 122 ID = 1240
  35.274540 1  358             Rx   d 8 0F BE 0A 22 00 00 00 00  Length = 228178 BitCount = 122 ID = 856
  35.284384 1  518             Rx   d 8 FF D2 FF D2 FF FF FF FF  Length = 228179 BitCount = 122 ID = 1304
  35.289276 1  360             Rx   d 8 00 03 00 00 80 00 00 00  Length = 234186 BitCount = 125 ID = 864
  35.289524 1  3E0             Rx   d 8 0D DE 00 00 00 00 00 00  Length = 231940 BitCount = 124 ID = 992
  35.289762 1  420             Rx   d 8 65 CC AD 8F 00 00 00 00  Length = 222182 BitCount = 119 ID = 1056
  35.294593 1  5D8             Rx   d 8 00 42 59 44 00 00 00 00  Length = 226194 BitCount = 121 ID = 1496
  35.314945 1  458             Rx   d 8 00 00 12 34 00 00 56 78  Length = 226194 BitCount = 121 ID = 1112
  35.324015 1  598             Rx   d 8 00 00 12 34 5A DE 07 4F  Length = 220202 BitCount = 118 ID = 1432
  35.324667 1  158             Rx   d 8 AA AA AA AA AA AA AA AA  Length = 208203 BitCount = 112 ID = 344
  35.334413 1  618             Rx   d 8 00 42 61 74 74 65 72 79  Length = 212194 BitCount = 114 ID = 1560
  35.334647 1  618             Rx   d 8 01 2D 42 6F 78 20 48 39  Length = 218190 BitCount = 117 ID = 1560
  35.334891 1  618             Rx   d 8 02 2E 30 00 00 00 00 00  Length = 228179 BitCount = 122 ID = 1560
  35.344255 1  3D8             Rx   d 8 0D DE 27 10 00 59 F9 00  Length = 218206 BitCount = 117 ID = 984
  35.354442 1  558             Rx   d 8 03 12 00 04 00 59 05 07  Length = 224198 BitCount = 120 ID = 1368
  35.354686 1  4D8             Rx   d 8 0D 8F 00 00 00 D2 02 08  Length = 228194 BitCount = 122 ID = 1240
  35.374428 1  358             Rx   d 8 0F BE 0A 22 00 00 00 00  Length = 228178 BitCount = 122 ID = 856
  35.384246 1  518             Rx   d 8 FF D2 FF D2 FF FF FF FF  Length = 228178 BitCount = 122 ID = 1304
  35.389252 1  360             Rx   d 8 00 03 00 00 80 00 00 00  Length = 234170 BitCount = 125 ID = 864
  35.389502 1  3E0             Rx   d 8 0D DE 00 00 00 00 00 00  Length = 231940 BitCount = 124 ID = 992
  35.389740 1  420             Rx   d 8 65 CC AD 8F 00 00 00 00  Length = 221952 BitCount = 119 ID = 1056
  35.394410 1  5D8             Rx   d 8 00 42 59 44 00 00 00 00  Length = 226178 BitCount = 121 ID = 1496
  35.414471 1  458             Rx   d 8 00 00 12 34 00 00 56 78  Length = 226178 BitCount = 121 ID = 1112
  35.424233 1  598             Rx   d 8 00 00 12 34 5A DE 07 4F  Length = 220187 BitCount = 118 ID = 1432
  35.424457 1  158             Rx   d 8 AA AA AA AA AA AA AA AA  Length = 208203 BitCount = 112 ID = 344
  35.444253 1  3D8             Rx   d 8 0D DE 27 10 00 59 F9 00  Length = 218190 BitCount = 117 ID = 984
  35.454397 1  558             Rx   d 8 03 12 00 04 00 59 05 07  Length = 224182 BitCount = 120 ID = 1368
  35.454625 1  618             Rx   d 8 00 42 61 74 74 65 72 79  Length = 212194 BitCount = 114 ID = 1560
  35.454859 1  618             Rx   d 8 01 2D 42 6F 78 20 48 39  Length = 218190 BitCount = 117 ID = 1560
  35.455103 1  618             Rx   d 8 02 2E 30 00 00 00 00 00  Length = 228194 BitCount = 122 ID = 1560
  35.455347 1  4D8             Rx   d 8 0D 8F 00 00 00 D2 02 08  Length = 228194 BitCount = 122 ID = 1240
  35.474426 1  358             Rx   d 8 0F BE 0A 22 00 00 00 00  Length = 228179 BitCount = 122 ID = 856
  35.484460 1  518             Rx   d 8 FF D2 FF D2 FF FF FF FF  Length = 228194 BitCount = 122 ID = 1304
  35.489232 1  360             Rx   d 8 00 03 00 00 80 00 00 00  Length = 234171 BitCount = 125 ID = 864
  35.489480 1  3E0             Rx   d 8 0D DE 00 00 00 00 00 00  Length = 231941 BitCount = 124 ID = 992
  35.491046 1  420             Rx   d 8 65 CC AD 8F 00 00 00 00  Length = 222182 BitCount = 119 ID = 1056
  35.494493 1  5D8             Rx   d 8 00 42 59 44 00 00 00 00  Length = 226178 BitCount = 121 ID = 1496
  35.514449 1  458             Rx   d 8 00 00 12 34 00 00 56 78  Length = 226179 BitCount = 121 ID = 1112
  35.524299 1  598             Rx   d 8 00 00 12 34 5A DE 07 4F  Length = 220202 BitCount = 118 ID = 1432
  35.524523 1  158             Rx   d 8 AA AA AA AA AA AA AA AA  Length = 208202 BitCount = 112 ID = 344
  35.544284 1  3D8             Rx   d 8 0D DE 27 10 00 59 F9 00  Length = 218190 BitCount = 117 ID = 984
  35.555528 1  558             Rx   d 8 03 12 00 04 00 59 05 07  Length = 224183 BitCount = 120 ID = 1368
  35.555772 1  4D8             Rx   d 8 0D 8F 00 00 00 D2 02 08  Length = 228179 BitCount = 122 ID = 1240
  35.574408 1  618             Rx   d 8 00 42 61 74 74 65 72 79  Length = 212194 BitCount = 114 ID = 1560
  35.574642 1  618             Rx   d 8 01 2D 42 6F 78 20 48 39  Length = 218190 BitCount = 117 ID = 1560
  35.574886 1  618             Rx   d 8 02 2E 30 00 00 00 00 00  Length = 228178 BitCount = 122 ID = 1560
  35.575130 1  358             Rx   d 8 0F BE 0A 22 00 00 00 00  Length = 228178 BitCount = 122 ID = 856
  35.584064 1  518             Rx   d 8 FF D2 FF D2 FF FF FF FF  Length = 228194 BitCount = 122 ID = 1304
  35.588638 1  360             Rx   d 8 00 03 00 00 80 00 00 00  Length = 233952 BitCount = 125 ID = 864
  35.588887 1  3E0             Rx   d 8 0D DE 00 00 00 00 00 00  Length = 232174 BitCount = 124 ID = 992
  35.589125 1  420             Rx   d 8 65 CC AD 8F 00 00 00 00  Length = 222182 BitCount = 119 ID = 1056
  35.594425 1  5D8             Rx   d 8 00 42 59 44 00 00 00 00  Length = 226194 BitCount = 121 ID = 1496
  35.614403 1  458             Rx   d 8 00 00 12 34 00 00 56 78  Length = 226178 BitCount = 121 ID = 1112
  35.624119 1  598             Rx   d 8 00 00 12 34 5A DE 07 4F  Length = 220186 BitCount = 118 ID = 1432
  35.624343 1  158             Rx   d 8 AA AA AA AA AA AA AA AA  Length = 208202 BitCount = 112 ID = 344
  35.644222 1  3D8             Rx   d 8 0D DE 27 10 00 59 F9 00  Length = 218190 BitCount = 117 ID = 984
  35.654370 1  558             Rx   d 8 03 12 00 04 00 59 05 07  Length = 224198 BitCount = 120 ID = 1368
  35.654614 1  4D8             Rx   d 8 0D 8F 00 00 00 D2 02 08  Length = 228194 BitCount = 122 ID = 1240
  35.674482 1  358             Rx   d 8 0F BE 0A 22 00 00 00 00  Length = 228179 BitCount = 122 ID = 856
  35.684284 1  518             Rx   d 8 FF D2 FF D2 FF FF FF FF  Length = 228178 BitCount = 122 ID = 1304
  35.688537 1  360             Rx   d 8 00 03 00 00 80 00 00 00  Length = 234170 BitCount = 125 ID = 864
  35.688784 1  3E0             Rx   d 8 0D DE 00 00 00 00 00 00  Length = 231940 BitCount = 124 ID = 992
  35.689023 1  420             Rx   d 8 65 CC AD 8F 00 00 00 00  Length = 222182 BitCount = 119 ID = 1056
  35.694679 1  5D8             Rx   d 8 00 42 59 44 00 00 00 00  Length = 226178 BitCount = 121 ID = 1496
  35.694907 1  618             Rx   d 8 00 42 61 74 74 65 72 79  Length = 212194 BitCount = 114 ID = 1560
  35.695141 1  618             Rx   d 8 01 2D 42 6F 78 20 48 39  Length = 218190 BitCount = 117 ID = 1560
  35.695385 1  618             Rx   d 8 02 2E 30 00 00 00 00 00  Length = 228178 BitCount = 122 ID = 1560
  35.714387 1  458             Rx   d 8 00 00 12 34 00 00 56 78  Length = 226194 BitCount = 121 ID = 1112
  35.724230 1  598             Rx   d 8 00 00 12 34 5A DE 07 4F  Length = 220186 BitCount = 118 ID = 1432
  35.724454 1  158             Rx   d 8 AA AA AA AA AA AA AA AA  Length = 208202 BitCount = 112 ID = 344
  35.744426 1  3D8             Rx   d 8 0D DE 27 10 00 59 F9 00  Length = 218190 BitCount = 117 ID = 984
  35.754476 1  558             Rx   d 8 03 12 00 04 00 59 05 07  Length = 224182 BitCount = 120 ID = 1368
  35.754720 1  4D8             Rx   d 8 0D 8F 00 00 00 D2 02 08  Length = 228179 BitCount = 122 ID = 1240
  35.774499 1  358             Rx   d 8 0F BE 0A 22 00 00 00 00  Length = 228194 BitCount = 122 ID = 856
  35.784325 1  518             Rx   d 8 FF D2 FF D2 FF FF FF FF  Length = 228178 BitCount = 122 ID = 1304
  35.791741 1  360             Rx   d 8 00 03 00 00 80 00 00 00  Length = 234171 BitCount = 125 ID = 864
  35.791989 1  3E0             Rx   d 8 0D DE 00 00 00 00 00 00  Length = 232190 BitCount = 124 ID = 992
  35.792233 1  420             Rx   d 8 65 CC AD 90 00 00 00 00  Length = 224198 BitCount = 120 ID = 1056
  35.794467 1  5D8             Rx   d 8 00 42 59 44 00 00 00 00  Length = 226179 BitCount = 121 ID = 1496
  35.814452 1  618             Rx   d 8 00 42 61 74 74 65 72 79  Length = 212194 BitCount = 114 ID = 1560
  35.814686 1  618             Rx   d 8 01 2D 42 6F 78 20 48 39  Length = 218190 BitCount = 117 ID = 1560
  35.814930 1  618             Rx   d 8 02 2E 30 00 00 00 00 00  Length = 228179 BitCount = 122 ID = 1560
  35.815172 1  458             Rx   d 8 00 00 12 34 00 00 56 78  Length = 226179 BitCount = 121 ID = 1112
  35.824228 1  598             Rx   d 8 00 00 12 34 5A DE 07 4F  Length = 220202 BitCount = 118 ID = 1432
  35.824452 1  158             Rx   d 8 AA AA AA AA AA AA AA AA  Length = 208218 BitCount = 112 ID = 344
  35.844610 1  3D8             Rx   d 8 0D DE 27 10 00 59 F9 00  Length = 218190 BitCount = 117 ID = 984
  35.854428 1  558             Rx   d 8 03 12 00 04 00 59 05 07  Length = 224182 BitCount = 120 ID = 1368
  35.854672 1  4D8             Rx   d 8 0D 8F 00 00 00 D2 02 08  Length = 228178 BitCount = 122 ID = 1240
  35.874469 1  358             Rx   d 8 0F BE 0A 22 00 00 00 00  Length = 228178 BitCount = 122 ID = 856
  35.884265 1  518             Rx   d 8 FF D2 FF D2 FF FF FF FF  Length = 228178 BitCount = 122 ID = 1304
  35.888585 1  360             Rx   d 8 00 03 00 00 80 00 00 00  Length = 233937 BitCount = 125 ID = 864
  35.888833 1  3E0             Rx   d 8 0D DE 00 00 00 00 00 00  Length = 232174 BitCount = 124 ID = 992
  35.889073 1  420             Rx   d 8 65 CC AD 90 00 00 00 00  Length = 224182 BitCount = 120 ID = 1056
  35.894434 1  5D8             Rx   d 8 00 42 59 44 00 00 00 00  Length = 226178 BitCount = 121 ID = 1496
  35.914490 1  458             Rx   d 8 00 00 12 34 00 00 56 78  Length = 226178 BitCount = 121 ID = 1112
  35.924252 1  598             Rx   d 8 00 00 12 34 5A DE 07 4F  Length = 220186 BitCount = 118 ID = 1432
  35.924476 1  158             Rx   d 8 AA AA AA AA AA AA AA AA  Length = 208202 BitCount = 112 ID = 344
  35.934406 1  618             Rx   d 8 00 42 61 74 74 65 72 79  Length = 212194 BitCount = 114 ID = 1560
  35.934640 1  618             Rx   d 8 01 2D 42 6F 78 20 48 39  Length = 218190 BitCount = 117 ID = 1560
  35.934884 1  618             Rx   d 8 02 2E 30 00 00 00 00 00  Length = 228178 BitCount = 122 ID = 1560
  35.944050 1  3D8             Rx   d 8 0D DE 27 10 00 59 F9 00  Length = 218191 BitCount = 117 ID = 984
  35.954377 1  558             Rx   d 8 03 12 00 04 00 59 05 07  Length = 224182 BitCount = 120 ID = 1368
  35.954621 1  4D8             Rx   d 8 0D 8F 00 00 00 D2 02 08  Length = 228178 BitCount = 122 ID = 1240
  35.974459 1  358             Rx   d 8 0F BE 0A 22 00 00 00 00  Length = 228178 BitCount = 122 ID = 856
  35.984261 1  518             Rx   d 8 FF D2 FF D2 FF FF FF FF  Length = 228178 BitCount = 122 ID = 1304
  35.988635 1  360             Rx   d 8 00 03 00 00 80 00 00 00  Length = 234170 BitCount = 125 ID = 864
  35.988883 1  3E0             Rx   d 8 0D DE 00 00 00 00 00 00  Length = 231940 BitCount = 124 ID = 992
  35.989123 1  420             Rx   d 8 65 CC AD 90 00 00 00 00  Length = 223948 BitCount = 120 ID = 1056
  35.994427 1  5D8             Rx   d 8 00 42 59 44 00 00 00 00  Length = 226179 BitCount = 121 ID = 1496
  36.006742 CAN 1 Status:chip status error active
  36.006742 CAN 2 Status:chip status error active
  36.014398 1  458             Rx   d 8 00 00 12 34 00 00 56 78  Length = 226194 BitCount = 121 ID = 1112
  36.024230 1  598             Rx   d 8 00 00 12 34 5A DE 07 4F  Length = 220186 BitCount = 118 ID = 1432
  36.024454 1  158             Rx   d 8 AA AA AA AA AA AA AA AA  Length = 208202 BitCount = 112 ID = 344
  36.044214 1  3D8             Rx   d 8 0D DE 27 10 00 59 F9 00  Length = 218190 BitCount = 117 ID = 984
  36.054404 1  558             Rx   d 8 03 12 00 04 00 59 05 07  Length = 224182 BitCount = 120 ID = 1368
  36.054632 1  618             Rx   d 8 00 42 61 74 74 65 72 79  Length = 212194 BitCount = 114 ID = 1560
  36.054866 1  618             Rx   d 8 01 2D 42 6F 78 20 48 39  Length = 218190 BitCount = 117 ID = 1560
  36.055110 1  618             Rx   d 8 02 2E 30 00 00 00 00 00  Length = 228178 BitCount = 122 ID = 1560
  36.055354 1  4D8             Rx   d 8 0D 8F 00 00 00 D2 02 08  Length = 228178 BitCount = 122 ID = 1240
  36.074405 1  358             Rx   d 8 0F BE 0A 22 00 00 00 00  Length = 228194 BitCount = 122 ID = 856
  36.084115 1  518             Rx   d 8 FF D2 FF D2 FF FF FF FF  Length = 228178 BitCount = 122 ID = 1304
  36.088619 1  360             Rx   d 8 00 03 00 00 80 00 00 00  Length = 233937 BitCount = 125 ID = 864
  36.088867 1  3E0             Rx   d 8 0D DE 00 00 00 00 00 00  Length = 232190 BitCount = 124 ID = 992
  36.089109 1  420             Rx   d 8 65 CC AD 90 00 00 00 00  Length = 224198 BitCount = 120 ID = 1056
  36.095692 1  5D8             Rx   d 8 00 42 59 44 00 00 00 00  Length = 226179 BitCount = 121 ID = 1496
  36.114434 1  458             Rx   d 8 00 00 12 34 00 00 56 78  Length = 226178 BitCount = 121 ID = 1112
  36.124232 1  598             Rx   d 8 00 00 12 34 5A DE 07 4F  Length = 220186 BitCount = 118 ID = 1432
  36.124456 1  158             Rx   d 8 AA AA AA AA AA AA AA AA  Length = 208218 BitCount = 112 ID = 344
  36.144238 1  3D8             Rx   d 8 0D DE 27 10 00 59 F9 00  Length = 218190 BitCount = 117 ID = 984
  36.154413 1  558             Rx   d 8 03 12 00 04 00 59 05 07  Length = 224183 BitCount = 120 ID = 1368
  36.154657 1  4D8             Rx   d 8 0D 8F 00 00 00 D2 02 08  Length = 228179 BitCount = 122 ID = 1240
  36.174555 1  618             Rx   d 8 00 42 61 74 74 65 72 79  Length = 212194 BitCount = 114 ID = 1560
